Title: simulation of the telescopic ota designed with the sekv model
Date: Mon May 19 21:31:15  2025
Plotname: Operating Point
Flags: real
No. Variables: 413
No. Points: 1
Variables:
	0	v(3)	voltage
	1	v(1)	voltage
	2	v(2)	voltage
	3	v(4)	voltage
	4	v(5)	voltage
	5	v(6)	voltage
	6	v(7)	voltage
	7	v(8)	voltage
	8	i(einn)	current
	9	i(einp)	current
	10	v(ic)	voltage
	11	v(id)	voltage
	12	v(inn)	voltage
	13	v(inp)	voltage
	14	v(n.x1a.nsg13_lv_nmos#bd)	voltage
	15	v(n.x1a.nsg13_lv_nmos#bi)	voltage
	16	v(n.x1a.nsg13_lv_nmos#bp)	voltage
	17	v(n.x1a.nsg13_lv_nmos#bs)	voltage
	18	v(n.x1a.nsg13_lv_nmos#di)	voltage
	19	v(n.x1a.nsg13_lv_nmos#gp)	voltage
	20	v(n.x1a.nsg13_lv_nmos#int1)	voltage
	21	v(n.x1a.nsg13_lv_nmos#int2)	voltage
	22	v(n.x1a.nsg13_lv_nmos#int3)	voltage
	23	v(n.x1a.nsg13_lv_nmos#int4)	voltage
	24	v(n.x1a.nsg13_lv_nmos#int5)	voltage
	25	v(n.x1a.nsg13_lv_nmos#int6)	voltage
	26	v(n.x1a.nsg13_lv_nmos#int7)	voltage
	27	v(n.x1a.nsg13_lv_nmos#int8)	voltage
	28	v(n.x1a.nsg13_lv_nmos#int9)	voltage
	29	v(n.x1a.nsg13_lv_nmos#noi)	voltage
	30	v(n.x1a.nsg13_lv_nmos#si)	voltage
	31	v(n.x1a.nsg13_lv_nmos#flow(noii))	voltage
	32	v(n.x1a.nsg13_lv_nmos#flow(res1))	voltage
	33	v(n.x1a.nsg13_lv_nmos#flow(res2))	voltage
	34	v(n.x1a.nsg13_lv_nmos#flow(res3))	voltage
	35	v(n.x1a.nsg13_lv_nmos#flow(res4))	voltage
	36	v(n.x1a.nsg13_lv_nmos#flow(res5))	voltage
	37	v(n.x1a.nsg13_lv_nmos#flow(res6))	voltage
	38	v(n.x1a.nsg13_lv_nmos#flow(res7))	voltage
	39	v(n.x1a.nsg13_lv_nmos#flow(res8))	voltage
	40	v(n.x1a.nsg13_lv_nmos#flow(res9))	voltage
	41	v(n.x1a.nsg13_lv_nmos#flow(spline1))	voltage
	42	v(n.x1a.nsg13_lv_nmos#flow(spline2))	voltage
	43	v(n.x1a.nsg13_lv_nmos#flow(spline3))	voltage
	44	v(n.x1a.nsg13_lv_nmos#flow(spline4))	voltage
	45	v(n.x1a.nsg13_lv_nmos#flow(spline5))	voltage
	46	v(n.x1a.nsg13_lv_nmos#flow(spline6))	voltage
	47	v(n.x1a.nsg13_lv_nmos#flow(spline7))	voltage
	48	v(n.x1a.nsg13_lv_nmos#flow(spline8))	voltage
	49	v(n.x1a.nsg13_lv_nmos#flow(spline9))	voltage
	50	v(n.x1a.nsg13_lv_nmos#implicit_equation_0)	voltage
	51	v(n.x1a.nsg13_lv_nmos#implicit_equation_1)	voltage
	52	v(n.x1a.nsg13_lv_nmos#implicit_equation_2)	voltage
	53	v(n.x1b.nsg13_lv_nmos#bd)	voltage
	54	v(n.x1b.nsg13_lv_nmos#bi)	voltage
	55	v(n.x1b.nsg13_lv_nmos#bp)	voltage
	56	v(n.x1b.nsg13_lv_nmos#bs)	voltage
	57	v(n.x1b.nsg13_lv_nmos#di)	voltage
	58	v(n.x1b.nsg13_lv_nmos#gp)	voltage
	59	v(n.x1b.nsg13_lv_nmos#int1)	voltage
	60	v(n.x1b.nsg13_lv_nmos#int2)	voltage
	61	v(n.x1b.nsg13_lv_nmos#int3)	voltage
	62	v(n.x1b.nsg13_lv_nmos#int4)	voltage
	63	v(n.x1b.nsg13_lv_nmos#int5)	voltage
	64	v(n.x1b.nsg13_lv_nmos#int6)	voltage
	65	v(n.x1b.nsg13_lv_nmos#int7)	voltage
	66	v(n.x1b.nsg13_lv_nmos#int8)	voltage
	67	v(n.x1b.nsg13_lv_nmos#int9)	voltage
	68	v(n.x1b.nsg13_lv_nmos#noi)	voltage
	69	v(n.x1b.nsg13_lv_nmos#si)	voltage
	70	v(n.x1b.nsg13_lv_nmos#flow(noii))	voltage
	71	v(n.x1b.nsg13_lv_nmos#flow(res1))	voltage
	72	v(n.x1b.nsg13_lv_nmos#flow(res2))	voltage
	73	v(n.x1b.nsg13_lv_nmos#flow(res3))	voltage
	74	v(n.x1b.nsg13_lv_nmos#flow(res4))	voltage
	75	v(n.x1b.nsg13_lv_nmos#flow(res5))	voltage
	76	v(n.x1b.nsg13_lv_nmos#flow(res6))	voltage
	77	v(n.x1b.nsg13_lv_nmos#flow(res7))	voltage
	78	v(n.x1b.nsg13_lv_nmos#flow(res8))	voltage
	79	v(n.x1b.nsg13_lv_nmos#flow(res9))	voltage
	80	v(n.x1b.nsg13_lv_nmos#flow(spline1))	voltage
	81	v(n.x1b.nsg13_lv_nmos#flow(spline2))	voltage
	82	v(n.x1b.nsg13_lv_nmos#flow(spline3))	voltage
	83	v(n.x1b.nsg13_lv_nmos#flow(spline4))	voltage
	84	v(n.x1b.nsg13_lv_nmos#flow(spline5))	voltage
	85	v(n.x1b.nsg13_lv_nmos#flow(spline6))	voltage
	86	v(n.x1b.nsg13_lv_nmos#flow(spline7))	voltage
	87	v(n.x1b.nsg13_lv_nmos#flow(spline8))	voltage
	88	v(n.x1b.nsg13_lv_nmos#flow(spline9))	voltage
	89	v(n.x1b.nsg13_lv_nmos#implicit_equation_0)	voltage
	90	v(n.x1b.nsg13_lv_nmos#implicit_equation_1)	voltage
	91	v(n.x1b.nsg13_lv_nmos#implicit_equation_2)	voltage
	92	v(n.x2a.nsg13_lv_pmos#bd)	voltage
	93	v(n.x2a.nsg13_lv_pmos#bi)	voltage
	94	v(n.x2a.nsg13_lv_pmos#bp)	voltage
	95	v(n.x2a.nsg13_lv_pmos#bs)	voltage
	96	v(n.x2a.nsg13_lv_pmos#di)	voltage
	97	v(n.x2a.nsg13_lv_pmos#gp)	voltage
	98	v(n.x2a.nsg13_lv_pmos#int1)	voltage
	99	v(n.x2a.nsg13_lv_pmos#int2)	voltage
	100	v(n.x2a.nsg13_lv_pmos#int3)	voltage
	101	v(n.x2a.nsg13_lv_pmos#int4)	voltage
	102	v(n.x2a.nsg13_lv_pmos#int5)	voltage
	103	v(n.x2a.nsg13_lv_pmos#int6)	voltage
	104	v(n.x2a.nsg13_lv_pmos#int7)	voltage
	105	v(n.x2a.nsg13_lv_pmos#int8)	voltage
	106	v(n.x2a.nsg13_lv_pmos#int9)	voltage
	107	v(n.x2a.nsg13_lv_pmos#noi)	voltage
	108	v(n.x2a.nsg13_lv_pmos#si)	voltage
	109	v(n.x2a.nsg13_lv_pmos#flow(noii))	voltage
	110	v(n.x2a.nsg13_lv_pmos#flow(res1))	voltage
	111	v(n.x2a.nsg13_lv_pmos#flow(res2))	voltage
	112	v(n.x2a.nsg13_lv_pmos#flow(res3))	voltage
	113	v(n.x2a.nsg13_lv_pmos#flow(res4))	voltage
	114	v(n.x2a.nsg13_lv_pmos#flow(res5))	voltage
	115	v(n.x2a.nsg13_lv_pmos#flow(res6))	voltage
	116	v(n.x2a.nsg13_lv_pmos#flow(res7))	voltage
	117	v(n.x2a.nsg13_lv_pmos#flow(res8))	voltage
	118	v(n.x2a.nsg13_lv_pmos#flow(res9))	voltage
	119	v(n.x2a.nsg13_lv_pmos#flow(spline1))	voltage
	120	v(n.x2a.nsg13_lv_pmos#flow(spline2))	voltage
	121	v(n.x2a.nsg13_lv_pmos#flow(spline3))	voltage
	122	v(n.x2a.nsg13_lv_pmos#flow(spline4))	voltage
	123	v(n.x2a.nsg13_lv_pmos#flow(spline5))	voltage
	124	v(n.x2a.nsg13_lv_pmos#flow(spline6))	voltage
	125	v(n.x2a.nsg13_lv_pmos#flow(spline7))	voltage
	126	v(n.x2a.nsg13_lv_pmos#flow(spline8))	voltage
	127	v(n.x2a.nsg13_lv_pmos#flow(spline9))	voltage
	128	v(n.x2a.nsg13_lv_pmos#implicit_equation_0)	voltage
	129	v(n.x2a.nsg13_lv_pmos#implicit_equation_1)	voltage
	130	v(n.x2a.nsg13_lv_pmos#implicit_equation_2)	voltage
	131	v(n.x2b.nsg13_lv_pmos#bd)	voltage
	132	v(n.x2b.nsg13_lv_pmos#bi)	voltage
	133	v(n.x2b.nsg13_lv_pmos#bp)	voltage
	134	v(n.x2b.nsg13_lv_pmos#bs)	voltage
	135	v(n.x2b.nsg13_lv_pmos#di)	voltage
	136	v(n.x2b.nsg13_lv_pmos#gp)	voltage
	137	v(n.x2b.nsg13_lv_pmos#int1)	voltage
	138	v(n.x2b.nsg13_lv_pmos#int2)	voltage
	139	v(n.x2b.nsg13_lv_pmos#int3)	voltage
	140	v(n.x2b.nsg13_lv_pmos#int4)	voltage
	141	v(n.x2b.nsg13_lv_pmos#int5)	voltage
	142	v(n.x2b.nsg13_lv_pmos#int6)	voltage
	143	v(n.x2b.nsg13_lv_pmos#int7)	voltage
	144	v(n.x2b.nsg13_lv_pmos#int8)	voltage
	145	v(n.x2b.nsg13_lv_pmos#int9)	voltage
	146	v(n.x2b.nsg13_lv_pmos#noi)	voltage
	147	v(n.x2b.nsg13_lv_pmos#si)	voltage
	148	v(n.x2b.nsg13_lv_pmos#flow(noii))	voltage
	149	v(n.x2b.nsg13_lv_pmos#flow(res1))	voltage
	150	v(n.x2b.nsg13_lv_pmos#flow(res2))	voltage
	151	v(n.x2b.nsg13_lv_pmos#flow(res3))	voltage
	152	v(n.x2b.nsg13_lv_pmos#flow(res4))	voltage
	153	v(n.x2b.nsg13_lv_pmos#flow(res5))	voltage
	154	v(n.x2b.nsg13_lv_pmos#flow(res6))	voltage
	155	v(n.x2b.nsg13_lv_pmos#flow(res7))	voltage
	156	v(n.x2b.nsg13_lv_pmos#flow(res8))	voltage
	157	v(n.x2b.nsg13_lv_pmos#flow(res9))	voltage
	158	v(n.x2b.nsg13_lv_pmos#flow(spline1))	voltage
	159	v(n.x2b.nsg13_lv_pmos#flow(spline2))	voltage
	160	v(n.x2b.nsg13_lv_pmos#flow(spline3))	voltage
	161	v(n.x2b.nsg13_lv_pmos#flow(spline4))	voltage
	162	v(n.x2b.nsg13_lv_pmos#flow(spline5))	voltage
	163	v(n.x2b.nsg13_lv_pmos#flow(spline6))	voltage
	164	v(n.x2b.nsg13_lv_pmos#flow(spline7))	voltage
	165	v(n.x2b.nsg13_lv_pmos#flow(spline8))	voltage
	166	v(n.x2b.nsg13_lv_pmos#flow(spline9))	voltage
	167	v(n.x2b.nsg13_lv_pmos#implicit_equation_0)	voltage
	168	v(n.x2b.nsg13_lv_pmos#implicit_equation_1)	voltage
	169	v(n.x2b.nsg13_lv_pmos#implicit_equation_2)	voltage
	170	v(n.x3a.nsg13_lv_nmos#bd)	voltage
	171	v(n.x3a.nsg13_lv_nmos#bi)	voltage
	172	v(n.x3a.nsg13_lv_nmos#bp)	voltage
	173	v(n.x3a.nsg13_lv_nmos#bs)	voltage
	174	v(n.x3a.nsg13_lv_nmos#di)	voltage
	175	v(n.x3a.nsg13_lv_nmos#gp)	voltage
	176	v(n.x3a.nsg13_lv_nmos#int1)	voltage
	177	v(n.x3a.nsg13_lv_nmos#int2)	voltage
	178	v(n.x3a.nsg13_lv_nmos#int3)	voltage
	179	v(n.x3a.nsg13_lv_nmos#int4)	voltage
	180	v(n.x3a.nsg13_lv_nmos#int5)	voltage
	181	v(n.x3a.nsg13_lv_nmos#int6)	voltage
	182	v(n.x3a.nsg13_lv_nmos#int7)	voltage
	183	v(n.x3a.nsg13_lv_nmos#int8)	voltage
	184	v(n.x3a.nsg13_lv_nmos#int9)	voltage
	185	v(n.x3a.nsg13_lv_nmos#noi)	voltage
	186	v(n.x3a.nsg13_lv_nmos#si)	voltage
	187	v(n.x3a.nsg13_lv_nmos#flow(noii))	voltage
	188	v(n.x3a.nsg13_lv_nmos#flow(res1))	voltage
	189	v(n.x3a.nsg13_lv_nmos#flow(res2))	voltage
	190	v(n.x3a.nsg13_lv_nmos#flow(res3))	voltage
	191	v(n.x3a.nsg13_lv_nmos#flow(res4))	voltage
	192	v(n.x3a.nsg13_lv_nmos#flow(res5))	voltage
	193	v(n.x3a.nsg13_lv_nmos#flow(res6))	voltage
	194	v(n.x3a.nsg13_lv_nmos#flow(res7))	voltage
	195	v(n.x3a.nsg13_lv_nmos#flow(res8))	voltage
	196	v(n.x3a.nsg13_lv_nmos#flow(res9))	voltage
	197	v(n.x3a.nsg13_lv_nmos#flow(spline1))	voltage
	198	v(n.x3a.nsg13_lv_nmos#flow(spline2))	voltage
	199	v(n.x3a.nsg13_lv_nmos#flow(spline3))	voltage
	200	v(n.x3a.nsg13_lv_nmos#flow(spline4))	voltage
	201	v(n.x3a.nsg13_lv_nmos#flow(spline5))	voltage
	202	v(n.x3a.nsg13_lv_nmos#flow(spline6))	voltage
	203	v(n.x3a.nsg13_lv_nmos#flow(spline7))	voltage
	204	v(n.x3a.nsg13_lv_nmos#flow(spline8))	voltage
	205	v(n.x3a.nsg13_lv_nmos#flow(spline9))	voltage
	206	v(n.x3a.nsg13_lv_nmos#implicit_equation_0)	voltage
	207	v(n.x3a.nsg13_lv_nmos#implicit_equation_1)	voltage
	208	v(n.x3a.nsg13_lv_nmos#implicit_equation_2)	voltage
	209	v(n.x3b.nsg13_lv_nmos#bd)	voltage
	210	v(n.x3b.nsg13_lv_nmos#bi)	voltage
	211	v(n.x3b.nsg13_lv_nmos#bp)	voltage
	212	v(n.x3b.nsg13_lv_nmos#bs)	voltage
	213	v(n.x3b.nsg13_lv_nmos#di)	voltage
	214	v(n.x3b.nsg13_lv_nmos#gp)	voltage
	215	v(n.x3b.nsg13_lv_nmos#int1)	voltage
	216	v(n.x3b.nsg13_lv_nmos#int2)	voltage
	217	v(n.x3b.nsg13_lv_nmos#int3)	voltage
	218	v(n.x3b.nsg13_lv_nmos#int4)	voltage
	219	v(n.x3b.nsg13_lv_nmos#int5)	voltage
	220	v(n.x3b.nsg13_lv_nmos#int6)	voltage
	221	v(n.x3b.nsg13_lv_nmos#int7)	voltage
	222	v(n.x3b.nsg13_lv_nmos#int8)	voltage
	223	v(n.x3b.nsg13_lv_nmos#int9)	voltage
	224	v(n.x3b.nsg13_lv_nmos#noi)	voltage
	225	v(n.x3b.nsg13_lv_nmos#si)	voltage
	226	v(n.x3b.nsg13_lv_nmos#flow(noii))	voltage
	227	v(n.x3b.nsg13_lv_nmos#flow(res1))	voltage
	228	v(n.x3b.nsg13_lv_nmos#flow(res2))	voltage
	229	v(n.x3b.nsg13_lv_nmos#flow(res3))	voltage
	230	v(n.x3b.nsg13_lv_nmos#flow(res4))	voltage
	231	v(n.x3b.nsg13_lv_nmos#flow(res5))	voltage
	232	v(n.x3b.nsg13_lv_nmos#flow(res6))	voltage
	233	v(n.x3b.nsg13_lv_nmos#flow(res7))	voltage
	234	v(n.x3b.nsg13_lv_nmos#flow(res8))	voltage
	235	v(n.x3b.nsg13_lv_nmos#flow(res9))	voltage
	236	v(n.x3b.nsg13_lv_nmos#flow(spline1))	voltage
	237	v(n.x3b.nsg13_lv_nmos#flow(spline2))	voltage
	238	v(n.x3b.nsg13_lv_nmos#flow(spline3))	voltage
	239	v(n.x3b.nsg13_lv_nmos#flow(spline4))	voltage
	240	v(n.x3b.nsg13_lv_nmos#flow(spline5))	voltage
	241	v(n.x3b.nsg13_lv_nmos#flow(spline6))	voltage
	242	v(n.x3b.nsg13_lv_nmos#flow(spline7))	voltage
	243	v(n.x3b.nsg13_lv_nmos#flow(spline8))	voltage
	244	v(n.x3b.nsg13_lv_nmos#flow(spline9))	voltage
	245	v(n.x3b.nsg13_lv_nmos#implicit_equation_0)	voltage
	246	v(n.x3b.nsg13_lv_nmos#implicit_equation_1)	voltage
	247	v(n.x3b.nsg13_lv_nmos#implicit_equation_2)	voltage
	248	v(n.x4a.nsg13_lv_pmos#bd)	voltage
	249	v(n.x4a.nsg13_lv_pmos#bi)	voltage
	250	v(n.x4a.nsg13_lv_pmos#bp)	voltage
	251	v(n.x4a.nsg13_lv_pmos#bs)	voltage
	252	v(n.x4a.nsg13_lv_pmos#di)	voltage
	253	v(n.x4a.nsg13_lv_pmos#gp)	voltage
	254	v(n.x4a.nsg13_lv_pmos#int1)	voltage
	255	v(n.x4a.nsg13_lv_pmos#int2)	voltage
	256	v(n.x4a.nsg13_lv_pmos#int3)	voltage
	257	v(n.x4a.nsg13_lv_pmos#int4)	voltage
	258	v(n.x4a.nsg13_lv_pmos#int5)	voltage
	259	v(n.x4a.nsg13_lv_pmos#int6)	voltage
	260	v(n.x4a.nsg13_lv_pmos#int7)	voltage
	261	v(n.x4a.nsg13_lv_pmos#int8)	voltage
	262	v(n.x4a.nsg13_lv_pmos#int9)	voltage
	263	v(n.x4a.nsg13_lv_pmos#noi)	voltage
	264	v(n.x4a.nsg13_lv_pmos#si)	voltage
	265	v(n.x4a.nsg13_lv_pmos#flow(noii))	voltage
	266	v(n.x4a.nsg13_lv_pmos#flow(res1))	voltage
	267	v(n.x4a.nsg13_lv_pmos#flow(res2))	voltage
	268	v(n.x4a.nsg13_lv_pmos#flow(res3))	voltage
	269	v(n.x4a.nsg13_lv_pmos#flow(res4))	voltage
	270	v(n.x4a.nsg13_lv_pmos#flow(res5))	voltage
	271	v(n.x4a.nsg13_lv_pmos#flow(res6))	voltage
	272	v(n.x4a.nsg13_lv_pmos#flow(res7))	voltage
	273	v(n.x4a.nsg13_lv_pmos#flow(res8))	voltage
	274	v(n.x4a.nsg13_lv_pmos#flow(res9))	voltage
	275	v(n.x4a.nsg13_lv_pmos#flow(spline1))	voltage
	276	v(n.x4a.nsg13_lv_pmos#flow(spline2))	voltage
	277	v(n.x4a.nsg13_lv_pmos#flow(spline3))	voltage
	278	v(n.x4a.nsg13_lv_pmos#flow(spline4))	voltage
	279	v(n.x4a.nsg13_lv_pmos#flow(spline5))	voltage
	280	v(n.x4a.nsg13_lv_pmos#flow(spline6))	voltage
	281	v(n.x4a.nsg13_lv_pmos#flow(spline7))	voltage
	282	v(n.x4a.nsg13_lv_pmos#flow(spline8))	voltage
	283	v(n.x4a.nsg13_lv_pmos#flow(spline9))	voltage
	284	v(n.x4a.nsg13_lv_pmos#implicit_equation_0)	voltage
	285	v(n.x4a.nsg13_lv_pmos#implicit_equation_1)	voltage
	286	v(n.x4a.nsg13_lv_pmos#implicit_equation_2)	voltage
	287	v(n.x4b.nsg13_lv_pmos#bd)	voltage
	288	v(n.x4b.nsg13_lv_pmos#bi)	voltage
	289	v(n.x4b.nsg13_lv_pmos#bp)	voltage
	290	v(n.x4b.nsg13_lv_pmos#bs)	voltage
	291	v(n.x4b.nsg13_lv_pmos#di)	voltage
	292	v(n.x4b.nsg13_lv_pmos#gp)	voltage
	293	v(n.x4b.nsg13_lv_pmos#int1)	voltage
	294	v(n.x4b.nsg13_lv_pmos#int2)	voltage
	295	v(n.x4b.nsg13_lv_pmos#int3)	voltage
	296	v(n.x4b.nsg13_lv_pmos#int4)	voltage
	297	v(n.x4b.nsg13_lv_pmos#int5)	voltage
	298	v(n.x4b.nsg13_lv_pmos#int6)	voltage
	299	v(n.x4b.nsg13_lv_pmos#int7)	voltage
	300	v(n.x4b.nsg13_lv_pmos#int8)	voltage
	301	v(n.x4b.nsg13_lv_pmos#int9)	voltage
	302	v(n.x4b.nsg13_lv_pmos#noi)	voltage
	303	v(n.x4b.nsg13_lv_pmos#si)	voltage
	304	v(n.x4b.nsg13_lv_pmos#flow(noii))	voltage
	305	v(n.x4b.nsg13_lv_pmos#flow(res1))	voltage
	306	v(n.x4b.nsg13_lv_pmos#flow(res2))	voltage
	307	v(n.x4b.nsg13_lv_pmos#flow(res3))	voltage
	308	v(n.x4b.nsg13_lv_pmos#flow(res4))	voltage
	309	v(n.x4b.nsg13_lv_pmos#flow(res5))	voltage
	310	v(n.x4b.nsg13_lv_pmos#flow(res6))	voltage
	311	v(n.x4b.nsg13_lv_pmos#flow(res7))	voltage
	312	v(n.x4b.nsg13_lv_pmos#flow(res8))	voltage
	313	v(n.x4b.nsg13_lv_pmos#flow(res9))	voltage
	314	v(n.x4b.nsg13_lv_pmos#flow(spline1))	voltage
	315	v(n.x4b.nsg13_lv_pmos#flow(spline2))	voltage
	316	v(n.x4b.nsg13_lv_pmos#flow(spline3))	voltage
	317	v(n.x4b.nsg13_lv_pmos#flow(spline4))	voltage
	318	v(n.x4b.nsg13_lv_pmos#flow(spline5))	voltage
	319	v(n.x4b.nsg13_lv_pmos#flow(spline6))	voltage
	320	v(n.x4b.nsg13_lv_pmos#flow(spline7))	voltage
	321	v(n.x4b.nsg13_lv_pmos#flow(spline8))	voltage
	322	v(n.x4b.nsg13_lv_pmos#flow(spline9))	voltage
	323	v(n.x4b.nsg13_lv_pmos#implicit_equation_0)	voltage
	324	v(n.x4b.nsg13_lv_pmos#implicit_equation_1)	voltage
	325	v(n.x4b.nsg13_lv_pmos#implicit_equation_2)	voltage
	326	v(n.x5a.nsg13_lv_nmos#bd)	voltage
	327	v(n.x5a.nsg13_lv_nmos#bi)	voltage
	328	v(n.x5a.nsg13_lv_nmos#bp)	voltage
	329	v(n.x5a.nsg13_lv_nmos#bs)	voltage
	330	v(n.x5a.nsg13_lv_nmos#di)	voltage
	331	v(n.x5a.nsg13_lv_nmos#gp)	voltage
	332	v(n.x5a.nsg13_lv_nmos#int1)	voltage
	333	v(n.x5a.nsg13_lv_nmos#int2)	voltage
	334	v(n.x5a.nsg13_lv_nmos#int3)	voltage
	335	v(n.x5a.nsg13_lv_nmos#int4)	voltage
	336	v(n.x5a.nsg13_lv_nmos#int5)	voltage
	337	v(n.x5a.nsg13_lv_nmos#int6)	voltage
	338	v(n.x5a.nsg13_lv_nmos#int7)	voltage
	339	v(n.x5a.nsg13_lv_nmos#int8)	voltage
	340	v(n.x5a.nsg13_lv_nmos#int9)	voltage
	341	v(n.x5a.nsg13_lv_nmos#noi)	voltage
	342	v(n.x5a.nsg13_lv_nmos#si)	voltage
	343	v(n.x5a.nsg13_lv_nmos#flow(noii))	voltage
	344	v(n.x5a.nsg13_lv_nmos#flow(res1))	voltage
	345	v(n.x5a.nsg13_lv_nmos#flow(res2))	voltage
	346	v(n.x5a.nsg13_lv_nmos#flow(res3))	voltage
	347	v(n.x5a.nsg13_lv_nmos#flow(res4))	voltage
	348	v(n.x5a.nsg13_lv_nmos#flow(res5))	voltage
	349	v(n.x5a.nsg13_lv_nmos#flow(res6))	voltage
	350	v(n.x5a.nsg13_lv_nmos#flow(res7))	voltage
	351	v(n.x5a.nsg13_lv_nmos#flow(res8))	voltage
	352	v(n.x5a.nsg13_lv_nmos#flow(res9))	voltage
	353	v(n.x5a.nsg13_lv_nmos#flow(spline1))	voltage
	354	v(n.x5a.nsg13_lv_nmos#flow(spline2))	voltage
	355	v(n.x5a.nsg13_lv_nmos#flow(spline3))	voltage
	356	v(n.x5a.nsg13_lv_nmos#flow(spline4))	voltage
	357	v(n.x5a.nsg13_lv_nmos#flow(spline5))	voltage
	358	v(n.x5a.nsg13_lv_nmos#flow(spline6))	voltage
	359	v(n.x5a.nsg13_lv_nmos#flow(spline7))	voltage
	360	v(n.x5a.nsg13_lv_nmos#flow(spline8))	voltage
	361	v(n.x5a.nsg13_lv_nmos#flow(spline9))	voltage
	362	v(n.x5a.nsg13_lv_nmos#implicit_equation_0)	voltage
	363	v(n.x5a.nsg13_lv_nmos#implicit_equation_1)	voltage
	364	v(n.x5a.nsg13_lv_nmos#implicit_equation_2)	voltage
	365	v(n.x5b.nsg13_lv_nmos#bd)	voltage
	366	v(n.x5b.nsg13_lv_nmos#bi)	voltage
	367	v(n.x5b.nsg13_lv_nmos#bp)	voltage
	368	v(n.x5b.nsg13_lv_nmos#bs)	voltage
	369	v(n.x5b.nsg13_lv_nmos#di)	voltage
	370	v(n.x5b.nsg13_lv_nmos#gp)	voltage
	371	v(n.x5b.nsg13_lv_nmos#int1)	voltage
	372	v(n.x5b.nsg13_lv_nmos#int2)	voltage
	373	v(n.x5b.nsg13_lv_nmos#int3)	voltage
	374	v(n.x5b.nsg13_lv_nmos#int4)	voltage
	375	v(n.x5b.nsg13_lv_nmos#int5)	voltage
	376	v(n.x5b.nsg13_lv_nmos#int6)	voltage
	377	v(n.x5b.nsg13_lv_nmos#int7)	voltage
	378	v(n.x5b.nsg13_lv_nmos#int8)	voltage
	379	v(n.x5b.nsg13_lv_nmos#int9)	voltage
	380	v(n.x5b.nsg13_lv_nmos#noi)	voltage
	381	v(n.x5b.nsg13_lv_nmos#si)	voltage
	382	v(n.x5b.nsg13_lv_nmos#flow(noii))	voltage
	383	v(n.x5b.nsg13_lv_nmos#flow(res1))	voltage
	384	v(n.x5b.nsg13_lv_nmos#flow(res2))	voltage
	385	v(n.x5b.nsg13_lv_nmos#flow(res3))	voltage
	386	v(n.x5b.nsg13_lv_nmos#flow(res4))	voltage
	387	v(n.x5b.nsg13_lv_nmos#flow(res5))	voltage
	388	v(n.x5b.nsg13_lv_nmos#flow(res6))	voltage
	389	v(n.x5b.nsg13_lv_nmos#flow(res7))	voltage
	390	v(n.x5b.nsg13_lv_nmos#flow(res8))	voltage
	391	v(n.x5b.nsg13_lv_nmos#flow(res9))	voltage
	392	v(n.x5b.nsg13_lv_nmos#flow(spline1))	voltage
	393	v(n.x5b.nsg13_lv_nmos#flow(spline2))	voltage
	394	v(n.x5b.nsg13_lv_nmos#flow(spline3))	voltage
	395	v(n.x5b.nsg13_lv_nmos#flow(spline4))	voltage
	396	v(n.x5b.nsg13_lv_nmos#flow(spline5))	voltage
	397	v(n.x5b.nsg13_lv_nmos#flow(spline6))	voltage
	398	v(n.x5b.nsg13_lv_nmos#flow(spline7))	voltage
	399	v(n.x5b.nsg13_lv_nmos#flow(spline8))	voltage
	400	v(n.x5b.nsg13_lv_nmos#flow(spline9))	voltage
	401	v(n.x5b.nsg13_lv_nmos#implicit_equation_0)	voltage
	402	v(n.x5b.nsg13_lv_nmos#implicit_equation_1)	voltage
	403	v(n.x5b.nsg13_lv_nmos#implicit_equation_2)	voltage
	404	v(out)	voltage
	405	v(vb1)	voltage
	406	i(vb1)	current
	407	v(vb2)	voltage
	408	i(vb2)	current
	409	v(vdd)	voltage
	410	i(vdd)	current
	411	i(vic)	current
	412	i(vid)	current
Values:
 0	5.002248793079874e-01
	2.065674061406580e-01
	7.075245905173304e-01
	4.999824298765239e-01
	9.484088646035362e-01
	9.483917315552638e-01
	3.680222129520254e-01
	2.080224468246941e-01
	-1.240257896384378e-13
	-1.239702784872065e-13
	4.500000000000000e-01
	-9.162999999999998e-06
	4.500045815000000e-01
	4.499954185000000e-01
	0.000000000000000e+00
	0.000000000000000e+00
	0.000000000000000e+00
	0.000000000000000e+00
	0.000000000000000e+00
	4.499954184993393e-01
	0.000000000000000e+00
	0.000000000000000e+00
	0.000000000000000e+00
	0.000000000000000e+00
	0.000000000000000e+00
	0.000000000000000e+00
	0.000000000000000e+00
	0.000000000000000e+00
	0.000000000000000e+00
	0.000000000000000e+00
	0.000000000000000e+00
	0.000000000000000e+00
	0.000000000000000e+00
	0.000000000000000e+00
	0.000000000000000e+00
	0.000000000000000e+00
	0.000000000000000e+00
	0.000000000000000e+00
	0.000000000000000e+00
	0.000000000000000e+00
	0.000000000000000e+00
	0.000000000000000e+00
	0.000000000000000e+00
	0.000000000000000e+00
	0.000000000000000e+00
	0.000000000000000e+00
	0.000000000000000e+00
	0.000000000000000e+00
	0.000000000000000e+00
	0.000000000000000e+00
	0.000000000000000e+00
	0.000000000000000e+00
	0.000000000000000e+00
	0.000000000000000e+00
	0.000000000000000e+00
	0.000000000000000e+00
