 time            v(inp)          v(out)         
 0.00000000e+00  4.00000000e-01  4.00065675e-01 
 1.10000000e-11  4.00000000e-01  4.00065675e-01 
 2.20000000e-11  4.00000000e-01  4.00065675e-01 
 4.40000000e-11  4.00000000e-01  4.00065675e-01 
 8.80000000e-11  4.00000000e-01  4.00065675e-01 
 1.76000000e-10  4.00000000e-01  4.00065675e-01 
 3.52000000e-10  4.00000000e-01  4.00065675e-01 
 7.04000000e-10  4.00000000e-01  4.00065675e-01 
 1.40800000e-09  4.00000000e-01  4.00065675e-01 
 2.50800000e-09  4.00000000e-01  4.00065675e-01 
 3.60800000e-09  4.00000000e-01  4.00065675e-01 
 4.70800000e-09  4.00000000e-01  4.00065675e-01 
 5.80800000e-09  4.00000000e-01  4.00065675e-01 
 6.90800000e-09  4.00000000e-01  4.00065675e-01 
 8.00800000e-09  4.00000000e-01  4.00065675e-01 
 9.10800000e-09  4.00000000e-01  4.00065675e-01 
 1.02080000e-08  4.00000000e-01  4.00065675e-01 
 1.13080000e-08  4.00000000e-01  4.00065675e-01 
 1.24080000e-08  4.00000000e-01  4.00065675e-01 
 1.35080000e-08  4.00000000e-01  4.00065675e-01 
 1.46080000e-08  4.00000000e-01  4.00065675e-01 
 1.57080000e-08  4.00000000e-01  4.00065675e-01 
 1.68080000e-08  4.00000000e-01  4.00065675e-01 
 1.79080000e-08  4.00000000e-01  4.00065675e-01 
 1.90080000e-08  4.00000000e-01  4.00065675e-01 
 2.01080000e-08  4.00000000e-01  4.00065675e-01 
 2.12080000e-08  4.00000000e-01  4.00065675e-01 
 2.23080000e-08  4.00000000e-01  4.00065675e-01 
 2.34080000e-08  4.00000000e-01  4.00065675e-01 
 2.45080000e-08  4.00000000e-01  4.00065675e-01 
 2.56080000e-08  4.00000000e-01  4.00065675e-01 
 2.67080000e-08  4.00000000e-01  4.00065675e-01 
 2.78080000e-08  4.00000000e-01  4.00065675e-01 
 2.89080000e-08  4.00000000e-01  4.00065675e-01 
 3.00080000e-08  4.00000000e-01  4.00065675e-01 
 3.11080000e-08  4.00000000e-01  4.00065675e-01 
 3.22080000e-08  4.00000000e-01  4.00065675e-01 
 3.33080000e-08  4.00000000e-01  4.00065675e-01 
 3.44080000e-08  4.00000000e-01  4.00065675e-01 
 3.55080000e-08  4.00000000e-01  4.00065675e-01 
 3.66080000e-08  4.00000000e-01  4.00065675e-01 
 3.77080000e-08  4.00000000e-01  4.00065675e-01 
 3.88080000e-08  4.00000000e-01  4.00065675e-01 
 3.99080000e-08  4.00000000e-01  4.00065675e-01 
 4.10080000e-08  4.00000000e-01  4.00065675e-01 
 4.21080000e-08  4.00000000e-01  4.00065675e-01 
 4.32080000e-08  4.00000000e-01  4.00065675e-01 
 4.43080000e-08  4.00000000e-01  4.00065675e-01 
 4.54080000e-08  4.00000000e-01  4.00065675e-01 
 4.65080000e-08  4.00000000e-01  4.00065675e-01 
 4.76080000e-08  4.00000000e-01  4.00065675e-01 
 4.87080000e-08  4.00000000e-01  4.00065675e-01 
 4.98080000e-08  4.00000000e-01  4.00065675e-01 
 5.09080000e-08  4.00000000e-01  4.00065675e-01 
 5.20080000e-08  4.00000000e-01  4.00065675e-01 
 5.31080000e-08  4.00000000e-01  4.00065675e-01 
 5.42080000e-08  4.00000000e-01  4.00065675e-01 
 5.53080000e-08  4.00000000e-01  4.00065675e-01 
 5.64080000e-08  4.00000000e-01  4.00065675e-01 
 5.75080000e-08  4.00000000e-01  4.00065675e-01 
 5.86080000e-08  4.00000000e-01  4.00065675e-01 
 5.97080000e-08  4.00000000e-01  4.00065675e-01 
 6.08080000e-08  4.00000000e-01  4.00065675e-01 
 6.19080000e-08  4.00000000e-01  4.00065675e-01 
 6.30080000e-08  4.00000000e-01  4.00065675e-01 
 6.41080000e-08  4.00000000e-01  4.00065675e-01 
 6.52080000e-08  4.00000000e-01  4.00065675e-01 
 6.63080000e-08  4.00000000e-01  4.00065675e-01 
 6.74080000e-08  4.00000000e-01  4.00065675e-01 
 6.85080000e-08  4.00000000e-01  4.00065675e-01 
 6.96080000e-08  4.00000000e-01  4.00065675e-01 
 7.07080000e-08  4.00000000e-01  4.00065675e-01 
 7.18080000e-08  4.00000000e-01  4.00065675e-01 
 7.29080000e-08  4.00000000e-01  4.00065675e-01 
 7.40080000e-08  4.00000000e-01  4.00065675e-01 
 7.51080000e-08  4.00000000e-01  4.00065675e-01 
 7.62080000e-08  4.00000000e-01  4.00065675e-01 
 7.73080000e-08  4.00000000e-01  4.00065675e-01 
 7.84080000e-08  4.00000000e-01  4.00065675e-01 
 7.95080000e-08  4.00000000e-01  4.00065675e-01 
 8.06080000e-08  4.00000000e-01  4.00065675e-01 
 8.17080000e-08  4.00000000e-01  4.00065675e-01 
 8.28080000e-08  4.00000000e-01  4.00065675e-01 
 8.39080000e-08  4.00000000e-01  4.00065675e-01 
 8.50080000e-08  4.00000000e-01  4.00065675e-01 
 8.61080000e-08  4.00000000e-01  4.00065675e-01 
 8.72080000e-08  4.00000000e-01  4.00065675e-01 
 8.83080000e-08  4.00000000e-01  4.00065675e-01 
 8.94080000e-08  4.00000000e-01  4.00065675e-01 
 9.05080000e-08  4.00000000e-01  4.00065675e-01 
 9.16080000e-08  4.00000000e-01  4.00065675e-01 
 9.27080000e-08  4.00000000e-01  4.00065675e-01 
 9.38080000e-08  4.00000000e-01  4.00065675e-01 
 9.49080000e-08  4.00000000e-01  4.00065675e-01 
 9.60080000e-08  4.00000000e-01  4.00065675e-01 
 9.71080000e-08  4.00000000e-01  4.00065675e-01 
 9.82080000e-08  4.00000000e-01  4.00065675e-01 
 9.93080000e-08  4.00000000e-01  4.00065675e-01 
 1.00000000e-07  4.00000000e-01  4.00065675e-01 
 1.00001000e-07  4.30000000e-01  4.00335667e-01 
 1.00003000e-07  4.90000000e-01  4.00803274e-01 
 1.00007000e-07  6.10000000e-01  4.01429317e-01 
 1.00010000e-07  7.00000000e-01  4.01850301e-01 
 1.00010800e-07  7.00000000e-01  4.01856661e-01 
 1.00012400e-07  7.00000000e-01  4.01856914e-01 
 1.00015600e-07  7.00000000e-01  4.01855907e-01 
 1.00022000e-07  7.00000000e-01  4.01855349e-01 
 1.00034800e-07  7.00000000e-01  4.01852880e-01 
 1.00060400e-07  7.00000000e-01  4.01849535e-01 
 1.00111600e-07  7.00000000e-01  4.01842258e-01 
 1.00214000e-07  7.00000000e-01  4.01831983e-01 
 1.00418800e-07  7.00000000e-01  4.01819538e-01 
 1.00828400e-07  7.00000000e-01  4.01822375e-01 
 1.01647600e-07  7.00000000e-01  4.01881095e-01 
 1.02747600e-07  7.00000000e-01  4.02002367e-01 
 1.03847600e-07  7.00000000e-01  4.02130270e-01 
 1.04947600e-07  7.00000000e-01  4.02260833e-01 
 1.06047600e-07  7.00000000e-01  4.02398821e-01 
 1.07147600e-07  7.00000000e-01  4.02552896e-01 
 1.08247600e-07  7.00000000e-01  4.02725337e-01 
 1.09347600e-07  7.00000000e-01  4.02918782e-01 
 1.10447600e-07  7.00000000e-01  4.03131188e-01 
 1.11547600e-07  7.00000000e-01  4.03363355e-01 
 1.12647600e-07  7.00000000e-01  4.03612353e-01 
 1.13747600e-07  7.00000000e-01  4.03878632e-01 
 1.14847600e-07  7.00000000e-01  4.04159211e-01 
 1.15947600e-07  7.00000000e-01  4.04454627e-01 
 1.17047600e-07  7.00000000e-01  4.04762065e-01 
 1.18147600e-07  7.00000000e-01  4.05082238e-01 
 1.19247600e-07  7.00000000e-01  4.05412512e-01 
 1.20347600e-07  7.00000000e-01  4.05753760e-01 
 1.21447600e-07  7.00000000e-01  4.06103499e-01 
 1.22547600e-07  7.00000000e-01  4.06462730e-01 
 1.23647600e-07  7.00000000e-01  4.06829095e-01 
 1.24747600e-07  7.00000000e-01  4.07203702e-01 
 1.25847600e-07  7.00000000e-01  4.07584299e-01 
 1.26947600e-07  7.00000000e-01  4.07972086e-01 
 1.28047600e-07  7.00000000e-01  4.08364902e-01 
 1.29147600e-07  7.00000000e-01  4.08764022e-01 
 1.30247600e-07  7.00000000e-01  4.09167361e-01 
 1.31347600e-07  7.00000000e-01  4.09576257e-01 
 1.32447600e-07  7.00000000e-01  4.09988689e-01 
 1.33547600e-07  7.00000000e-01  4.10406048e-01 
 1.34647600e-07  7.00000000e-01  4.10826366e-01 
 1.35747600e-07  7.00000000e-01  4.11251079e-01 
 1.36847600e-07  7.00000000e-01  4.11678262e-01 
 1.37947600e-07  7.00000000e-01  4.12109389e-01 
 1.39047600e-07  7.00000000e-01  4.12542576e-01 
 1.40147600e-07  7.00000000e-01  4.12979326e-01 
 1.41247600e-07  7.00000000e-01  4.13417786e-01 
 1.42347600e-07  7.00000000e-01  4.13859488e-01 
 1.43447600e-07  7.00000000e-01  4.14302607e-01 
 1.44547600e-07  7.00000000e-01  4.14748696e-01 
 1.45647600e-07  7.00000000e-01  4.15195953e-01 
 1.46747600e-07  7.00000000e-01  4.15645948e-01 
 1.47847600e-07  7.00000000e-01  4.16096902e-01 
 1.48947600e-07  7.00000000e-01  4.16550398e-01 
 1.50047600e-07  7.00000000e-01  4.17004673e-01 
 1.51147600e-07  7.00000000e-01  4.17461323e-01 
 1.52247600e-07  7.00000000e-01  4.17918599e-01 
 1.53347600e-07  7.00000000e-01  4.18378107e-01 
 1.54447600e-07  7.00000000e-01  4.18838109e-01 
 1.55547600e-07  7.00000000e-01  4.19300220e-01 
 1.56647600e-07  7.00000000e-01  4.19762711e-01 
 1.57747600e-07  7.00000000e-01  4.20227203e-01 
 1.58847600e-07  7.00000000e-01  4.20691977e-01 
 1.59947600e-07  7.00000000e-01  4.21158659e-01 
 1.61047600e-07  7.00000000e-01  4.21625536e-01 
 1.62147600e-07  7.00000000e-01  4.22094239e-01 
 1.63247600e-07  7.00000000e-01  4.22563061e-01 
 1.64347600e-07  7.00000000e-01  4.23033636e-01 
 1.65447600e-07  7.00000000e-01  4.23504263e-01 
 1.66547600e-07  7.00000000e-01  4.23976579e-01 
 1.67647600e-07  7.00000000e-01  4.24448888e-01 
 1.68747600e-07  7.00000000e-01  4.24922828e-01 
 1.69847600e-07  7.00000000e-01  4.25396707e-01 
 1.70947600e-07  7.00000000e-01  4.25872165e-01 
 1.72047600e-07  7.00000000e-01  4.26347515e-01 
 1.73147600e-07  7.00000000e-01  4.26824397e-01 
 1.74247600e-07  7.00000000e-01  4.27301128e-01 
 1.75347600e-07  7.00000000e-01  4.27779350e-01 
 1.76447600e-07  7.00000000e-01  4.28257380e-01 
 1.77547600e-07  7.00000000e-01  4.28736863e-01 
 1.78647600e-07  7.00000000e-01  4.29216119e-01 
 1.79747600e-07  7.00000000e-01  4.29696792e-01 
 1.80847600e-07  7.00000000e-01  4.30177206e-01 
 1.81947600e-07  7.00000000e-01  4.30659006e-01 
 1.83047600e-07  7.00000000e-01  4.31140516e-01 
 1.84147600e-07  7.00000000e-01  4.31623382e-01 
 1.85247600e-07  7.00000000e-01  4.32105933e-01 
 1.86347600e-07  7.00000000e-01  4.32589811e-01 
 1.87447600e-07  7.00000000e-01  4.33073348e-01 
 1.88547600e-07  7.00000000e-01  4.33558188e-01 
 1.89647600e-07  7.00000000e-01  4.34042664e-01 
 1.90747600e-07  7.00000000e-01  4.34528419e-01 
 1.91847600e-07  7.00000000e-01  4.35013788e-01 
 1.92947600e-07  7.00000000e-01  4.35500415e-01 
 1.94047600e-07  7.00000000e-01  4.35986637e-01 
 1.95147600e-07  7.00000000e-01  4.36474095e-01 
 1.96247600e-07  7.00000000e-01  4.36961130e-01 
 1.97347600e-07  7.00000000e-01  4.37449382e-01 
 1.98447600e-07  7.00000000e-01  4.37937193e-01 
 1.99547600e-07  7.00000000e-01  4.38426205e-01 
 2.00647600e-07  7.00000000e-01  4.38914758e-01 
 2.01747600e-07  7.00000000e-01  4.39404496e-01 
 2.02847600e-07  7.00000000e-01  4.39893760e-01 
 2.03947600e-07  7.00000000e-01  4.40384193e-01 
 2.05047600e-07  7.00000000e-01  4.40874138e-01 
 2.06147600e-07  7.00000000e-01  4.41365237e-01 
 2.07247600e-07  7.00000000e-01  4.41855836e-01 
 2.08347600e-07  7.00000000e-01  4.42347573e-01 
 2.09447600e-07  7.00000000e-01  4.42838798e-01 
 2.10547600e-07  7.00000000e-01  4.43331148e-01 
 2.11647600e-07  7.00000000e-01  4.43822974e-01 
 2.12747600e-07  7.00000000e-01  4.44315914e-01 
 2.13847600e-07  7.00000000e-01  4.44808317e-01 
 2.14947600e-07  7.00000000e-01  4.45301823e-01 
 2.16047600e-07  7.00000000e-01  4.45794781e-01 
 2.17147600e-07  7.00000000e-01  4.46288831e-01 
 2.18247600e-07  7.00000000e-01  4.46782323e-01 
 2.19347600e-07  7.00000000e-01  4.47276896e-01 
 2.20447600e-07  7.00000000e-01  4.47770903e-01 
 2.21547600e-07  7.00000000e-01  4.48265980e-01 
 2.22647600e-07  7.00000000e-01  4.48760481e-01 
 2.23747600e-07  7.00000000e-01  4.49256043e-01 
 2.24847600e-07  7.00000000e-01  4.49751022e-01 
 2.25947600e-07  7.00000000e-01  4.50247051e-01 
 2.27047600e-07  7.00000000e-01  4.50742489e-01 
 2.28147600e-07  7.00000000e-01  4.51238969e-01 
 2.29247600e-07  7.00000000e-01  4.51734850e-01 
 2.30347600e-07  7.00000000e-01  4.52231765e-01 
 2.31447600e-07  7.00000000e-01  4.52728073e-01 
 2.32547600e-07  7.00000000e-01  4.53225407e-01 
 2.33647600e-07  7.00000000e-01  4.53722127e-01 
 2.34747600e-07  7.00000000e-01  4.54219866e-01 
 2.35847600e-07  7.00000000e-01  4.54716984e-01 
 2.36947600e-07  7.00000000e-01  4.55215113e-01 
 2.38047600e-07  7.00000000e-01  4.55712615e-01 
 2.39147600e-07  7.00000000e-01  4.56211122e-01 
 2.40247600e-07  7.00000000e-01  4.56708995e-01 
 2.41347600e-07  7.00000000e-01  4.57207866e-01 
 2.42447600e-07  7.00000000e-01  4.57706098e-01 
 2.43547600e-07  7.00000000e-01  4.58205321e-01 
 2.44647600e-07  7.00000000e-01  4.58703899e-01 
 2.45747600e-07  7.00000000e-01  4.59203463e-01 
 2.46847600e-07  7.00000000e-01  4.59702376e-01 
 2.47947600e-07  7.00000000e-01  4.60202268e-01 
 2.49047600e-07  7.00000000e-01  4.60701505e-01 
 2.50147600e-07  7.00000000e-01  4.61201715e-01 
 2.51247600e-07  7.00000000e-01  4.61701265e-01 
 2.52347600e-07  7.00000000e-01  4.62201783e-01 
 2.53447600e-07  7.00000000e-01  4.62701636e-01 
 2.54547600e-07  7.00000000e-01  4.63202452e-01 
 2.55647600e-07  7.00000000e-01  4.63702598e-01 
 2.56747600e-07  7.00000000e-01  4.64203701e-01 
 2.57847600e-07  7.00000000e-01  4.64704130e-01 
 2.58947600e-07  7.00000000e-01  4.65205512e-01 
 2.60047600e-07  7.00000000e-01  4.65706216e-01 
 2.61147600e-07  7.00000000e-01  4.66207867e-01 
 2.62247600e-07  7.00000000e-01  4.66708836e-01 
 2.63347600e-07  7.00000000e-01  4.67210748e-01 
 2.64447600e-07  7.00000000e-01  4.67711974e-01 
 2.65547600e-07  7.00000000e-01  4.68214139e-01 
 2.66647600e-07  7.00000000e-01  4.68715614e-01 
 2.67747600e-07  7.00000000e-01  4.69218022e-01 
 2.68847600e-07  7.00000000e-01  4.69719738e-01 
 2.69947600e-07  7.00000000e-01  4.70222383e-01 
 2.71047600e-07  7.00000000e-01  4.70724332e-01 
 2.72147600e-07  7.00000000e-01  4.71227206e-01 
 2.73247600e-07  7.00000000e-01  4.71729380e-01 
 2.74347600e-07  7.00000000e-01  4.72232476e-01 
 2.75447600e-07  7.00000000e-01  4.72734868e-01 
 2.76547600e-07  7.00000000e-01  4.73238178e-01 
 2.77647600e-07  7.00000000e-01  4.73740782e-01 
 2.78747600e-07  7.00000000e-01  4.74244300e-01 
 2.79847600e-07  7.00000000e-01  4.74747108e-01 
 2.80947600e-07  7.00000000e-01  4.75250827e-01 
 2.82047600e-07  7.00000000e-01  4.75753833e-01 
 2.83147600e-07  7.00000000e-01  4.76257746e-01 
 2.84247600e-07  7.00000000e-01  4.76760943e-01 
 2.85347600e-07  7.00000000e-01  4.77265045e-01 
 2.86447600e-07  7.00000000e-01  4.77768427e-01 
 2.87547600e-07  7.00000000e-01  4.78272711e-01 
 2.88647600e-07  7.00000000e-01  4.78776273e-01 
 2.89747600e-07  7.00000000e-01  4.79280732e-01 
 2.90847600e-07  7.00000000e-01  4.79784467e-01 
 2.91947600e-07  7.00000000e-01  4.80289097e-01 
 2.93047600e-07  7.00000000e-01  4.80792999e-01 
 2.94147600e-07  7.00000000e-01  4.81297793e-01 
 2.95247600e-07  7.00000000e-01  4.81801858e-01 
 2.96347600e-07  7.00000000e-01  4.82306811e-01 
 2.97447600e-07  7.00000000e-01  4.82811032e-01 
 2.98547600e-07  7.00000000e-01  4.83316138e-01 
 2.99647600e-07  7.00000000e-01  4.83820511e-01 
 3.00747600e-07  7.00000000e-01  4.84325765e-01 
 3.01847600e-07  7.00000000e-01  4.84830284e-01 
 3.02947600e-07  7.00000000e-01  4.85335681e-01 
 3.04047600e-07  7.00000000e-01  4.85840340e-01 
 3.05147600e-07  7.00000000e-01  4.86345876e-01 
 3.06247600e-07  7.00000000e-01  4.86850671e-01 
 3.07347600e-07  7.00000000e-01  4.87356340e-01 
 3.08447600e-07  7.00000000e-01  4.87861265e-01 
 3.09547600e-07  7.00000000e-01  4.88367062e-01 
 3.10647600e-07  7.00000000e-01  4.88872114e-01 
 3.11747600e-07  7.00000000e-01  4.89378035e-01 
 3.12847600e-07  7.00000000e-01  4.89883207e-01 
 3.13947600e-07  7.00000000e-01  4.90389247e-01 
 3.15047600e-07  7.00000000e-01  4.90894536e-01 
 3.16147600e-07  7.00000000e-01  4.91400690e-01 
 3.17247600e-07  7.00000000e-01  4.91906092e-01 
 3.18347600e-07  7.00000000e-01  4.92412355e-01 
 3.19447600e-07  7.00000000e-01  4.92917864e-01 
 3.20547600e-07  7.00000000e-01  4.93424233e-01 
 3.21647600e-07  7.00000000e-01  4.93929845e-01 
 3.22747600e-07  7.00000000e-01  4.94436315e-01 
 3.23847600e-07  7.00000000e-01  4.94942026e-01 
 3.24947600e-07  7.00000000e-01  4.95448592e-01 
 3.26047600e-07  7.00000000e-01  4.95954398e-01 
 3.27147600e-07  7.00000000e-01  4.96461056e-01 
 3.28247600e-07  7.00000000e-01  4.96966952e-01 
 3.29347600e-07  7.00000000e-01  4.97473698e-01 
 3.30447600e-07  7.00000000e-01  4.97979680e-01 
 3.31547600e-07  7.00000000e-01  4.98486510e-01 
 3.32647600e-07  7.00000000e-01  4.98992575e-01 
 3.33747600e-07  7.00000000e-01  4.99499485e-01 
 3.34847600e-07  7.00000000e-01  5.00005627e-01 
 3.35947600e-07  7.00000000e-01  5.00512612e-01 
 3.37047600e-07  7.00000000e-01  5.01018828e-01 
 3.38147600e-07  7.00000000e-01  5.01525886e-01 
 3.39247600e-07  7.00000000e-01  5.02032171e-01 
 3.40347600e-07  7.00000000e-01  5.02539296e-01 
 3.41447600e-07  7.00000000e-01  5.03045648e-01 
 3.42547600e-07  7.00000000e-01  5.03552837e-01 
 3.43647600e-07  7.00000000e-01  5.04059250e-01 
 3.44747600e-07  7.00000000e-01  5.04566499e-01 
 3.45847600e-07  7.00000000e-01  5.05072970e-01 
 3.46947600e-07  7.00000000e-01  5.05580275e-01 
 3.48047600e-07  7.00000000e-01  5.06086800e-01 
 3.49147600e-07  7.00000000e-01  5.06594157e-01 
 3.50247600e-07  7.00000000e-01  5.07100733e-01 
 3.51347600e-07  7.00000000e-01  5.07608137e-01 
 3.52447600e-07  7.00000000e-01  5.08114759e-01 
 3.53547600e-07  7.00000000e-01  5.08622208e-01 
 3.54647600e-07  7.00000000e-01  5.09128873e-01 
 3.55747600e-07  7.00000000e-01  5.09636363e-01 
 3.56847600e-07  7.00000000e-01  5.10143066e-01 
 3.57947600e-07  7.00000000e-01  5.10650592e-01 
 3.59047600e-07  7.00000000e-01  5.11157330e-01 
 3.60147600e-07  7.00000000e-01  5.11664889e-01 
 3.61247600e-07  7.00000000e-01  5.12171659e-01 
 3.62347600e-07  7.00000000e-01  5.12679247e-01 
 3.63447600e-07  7.00000000e-01  5.13186043e-01 
 3.64547600e-07  7.00000000e-01  5.13693657e-01 
 3.65647600e-07  7.00000000e-01  5.14200477e-01 
 3.66747600e-07  7.00000000e-01  5.14708111e-01 
 3.67847600e-07  7.00000000e-01  5.15214951e-01 
 3.68947600e-07  7.00000000e-01  5.15722603e-01 
 3.70047600e-07  7.00000000e-01  5.16229458e-01 
 3.71147600e-07  7.00000000e-01  5.16737125e-01 
 3.72247600e-07  7.00000000e-01  5.17243992e-01 
 3.73347600e-07  7.00000000e-01  5.17751668e-01 
 3.74447600e-07  7.00000000e-01  5.18258543e-01 
 3.75547600e-07  7.00000000e-01  5.18766225e-01 
 3.76647600e-07  7.00000000e-01  5.19273104e-01 
 3.77747600e-07  7.00000000e-01  5.19780789e-01 
 3.78847600e-07  7.00000000e-01  5.20287668e-01 
 3.79947600e-07  7.00000000e-01  5.20795351e-01 
 3.81047600e-07  7.00000000e-01  5.21302227e-01 
 3.82147600e-07  7.00000000e-01  5.21809903e-01 
 3.83247600e-07  7.00000000e-01  5.22316772e-01 
 3.84347600e-07  7.00000000e-01  5.22824439e-01 
 3.85447600e-07  7.00000000e-01  5.23331295e-01 
 3.86547600e-07  7.00000000e-01  5.23838948e-01 
 3.87647600e-07  7.00000000e-01  5.24345789e-01 
 3.88747600e-07  7.00000000e-01  5.24853425e-01 
 3.89847600e-07  7.00000000e-01  5.25360246e-01 
 3.90947600e-07  7.00000000e-01  5.25867859e-01 
 3.92047600e-07  7.00000000e-01  5.26374656e-01 
 3.93147600e-07  7.00000000e-01  5.26882244e-01 
 3.94247600e-07  7.00000000e-01  5.27389012e-01 
 3.95347600e-07  7.00000000e-01  5.27896569e-01 
 3.96447600e-07  7.00000000e-01  5.28403306e-01 
 3.97547600e-07  7.00000000e-01  5.28910828e-01 
 3.98647600e-07  7.00000000e-01  5.29417528e-01 
 3.99747600e-07  7.00000000e-01  5.29925012e-01 
 4.00847600e-07  7.00000000e-01  5.30431670e-01 
 4.01947600e-07  7.00000000e-01  5.30939110e-01 
 4.03047600e-07  7.00000000e-01  5.31445723e-01 
 4.04147600e-07  7.00000000e-01  5.31953115e-01 
 4.05247600e-07  7.00000000e-01  5.32459678e-01 
 4.06347600e-07  7.00000000e-01  5.32967018e-01 
 4.07447600e-07  7.00000000e-01  5.33473526e-01 
 4.08547600e-07  7.00000000e-01  5.33980809e-01 
 4.09647600e-07  7.00000000e-01  5.34487257e-01 
 4.10747600e-07  7.00000000e-01  5.34994479e-01 
 4.11847600e-07  7.00000000e-01  5.35500863e-01 
 4.12947600e-07  7.00000000e-01  5.36008018e-01 
 4.14047600e-07  7.00000000e-01  5.36514332e-01 
 4.15147600e-07  7.00000000e-01  5.37021416e-01 
