 time            v(inp)          v(out)         
 0.00000000e+00  3.00000000e-01  3.02952721e-01 
 1.10000000e-11  3.00000000e-01  3.02952721e-01 
 2.20000000e-11  3.00000000e-01  3.02952721e-01 
 4.40000000e-11  3.00000000e-01  3.02952721e-01 
 8.80000000e-11  3.00000000e-01  3.02952721e-01 
 1.76000000e-10  3.00000000e-01  3.02952721e-01 
 3.52000000e-10  3.00000000e-01  3.02952721e-01 
 7.04000000e-10  3.00000000e-01  3.02952721e-01 
 1.40800000e-09  3.00000000e-01  3.02952721e-01 
 2.50800000e-09  3.00000000e-01  3.02952721e-01 
 3.60800000e-09  3.00000000e-01  3.02952721e-01 
 4.70800000e-09  3.00000000e-01  3.02952721e-01 
 5.80800000e-09  3.00000000e-01  3.02952721e-01 
 6.90800000e-09  3.00000000e-01  3.02952721e-01 
 8.00800000e-09  3.00000000e-01  3.02952721e-01 
 9.10800000e-09  3.00000000e-01  3.02952721e-01 
 1.02080000e-08  3.00000000e-01  3.02952721e-01 
 1.13080000e-08  3.00000000e-01  3.02952721e-01 
 1.24080000e-08  3.00000000e-01  3.02952721e-01 
 1.35080000e-08  3.00000000e-01  3.02952721e-01 
 1.46080000e-08  3.00000000e-01  3.02952721e-01 
 1.57080000e-08  3.00000000e-01  3.02952721e-01 
 1.68080000e-08  3.00000000e-01  3.02952721e-01 
 1.79080000e-08  3.00000000e-01  3.02952721e-01 
 1.90080000e-08  3.00000000e-01  3.02952721e-01 
 2.01080000e-08  3.00000000e-01  3.02952721e-01 
 2.12080000e-08  3.00000000e-01  3.02952721e-01 
 2.23080000e-08  3.00000000e-01  3.02952721e-01 
 2.34080000e-08  3.00000000e-01  3.02952721e-01 
 2.45080000e-08  3.00000000e-01  3.02952721e-01 
 2.56080000e-08  3.00000000e-01  3.02952721e-01 
 2.67080000e-08  3.00000000e-01  3.02952721e-01 
 2.78080000e-08  3.00000000e-01  3.02952721e-01 
 2.89080000e-08  3.00000000e-01  3.02952721e-01 
 3.00080000e-08  3.00000000e-01  3.02952721e-01 
 3.11080000e-08  3.00000000e-01  3.02952721e-01 
 3.22080000e-08  3.00000000e-01  3.02952721e-01 
 3.33080000e-08  3.00000000e-01  3.02952721e-01 
 3.44080000e-08  3.00000000e-01  3.02952721e-01 
 3.55080000e-08  3.00000000e-01  3.02952721e-01 
 3.66080000e-08  3.00000000e-01  3.02952721e-01 
 3.77080000e-08  3.00000000e-01  3.02952721e-01 
 3.88080000e-08  3.00000000e-01  3.02952721e-01 
 3.99080000e-08  3.00000000e-01  3.02952721e-01 
 4.10080000e-08  3.00000000e-01  3.02952721e-01 
 4.21080000e-08  3.00000000e-01  3.02952721e-01 
 4.32080000e-08  3.00000000e-01  3.02952721e-01 
 4.43080000e-08  3.00000000e-01  3.02952721e-01 
 4.54080000e-08  3.00000000e-01  3.02952721e-01 
 4.65080000e-08  3.00000000e-01  3.02952721e-01 
 4.76080000e-08  3.00000000e-01  3.02952721e-01 
 4.87080000e-08  3.00000000e-01  3.02952721e-01 
 4.98080000e-08  3.00000000e-01  3.02952721e-01 
 5.09080000e-08  3.00000000e-01  3.02952721e-01 
 5.20080000e-08  3.00000000e-01  3.02952721e-01 
 5.31080000e-08  3.00000000e-01  3.02952721e-01 
 5.42080000e-08  3.00000000e-01  3.02952721e-01 
 5.53080000e-08  3.00000000e-01  3.02952721e-01 
 5.64080000e-08  3.00000000e-01  3.02952721e-01 
 5.75080000e-08  3.00000000e-01  3.02952721e-01 
 5.86080000e-08  3.00000000e-01  3.02952721e-01 
 5.97080000e-08  3.00000000e-01  3.02952721e-01 
 6.08080000e-08  3.00000000e-01  3.02952721e-01 
 6.19080000e-08  3.00000000e-01  3.02952721e-01 
 6.30080000e-08  3.00000000e-01  3.02952721e-01 
 6.41080000e-08  3.00000000e-01  3.02952721e-01 
 6.52080000e-08  3.00000000e-01  3.02952721e-01 
 6.63080000e-08  3.00000000e-01  3.02952721e-01 
 6.74080000e-08  3.00000000e-01  3.02952721e-01 
 6.85080000e-08  3.00000000e-01  3.02952721e-01 
 6.96080000e-08  3.00000000e-01  3.02952721e-01 
 7.07080000e-08  3.00000000e-01  3.02952721e-01 
 7.18080000e-08  3.00000000e-01  3.02952721e-01 
 7.29080000e-08  3.00000000e-01  3.02952721e-01 
 7.40080000e-08  3.00000000e-01  3.02952721e-01 
 7.51080000e-08  3.00000000e-01  3.02952721e-01 
 7.62080000e-08  3.00000000e-01  3.02952721e-01 
 7.73080000e-08  3.00000000e-01  3.02952721e-01 
 7.84080000e-08  3.00000000e-01  3.02952721e-01 
 7.95080000e-08  3.00000000e-01  3.02952721e-01 
 8.06080000e-08  3.00000000e-01  3.02952721e-01 
 8.17080000e-08  3.00000000e-01  3.02952721e-01 
 8.28080000e-08  3.00000000e-01  3.02952721e-01 
 8.39080000e-08  3.00000000e-01  3.02952721e-01 
 8.50080000e-08  3.00000000e-01  3.02952721e-01 
 8.61080000e-08  3.00000000e-01  3.02952721e-01 
 8.72080000e-08  3.00000000e-01  3.02952721e-01 
 8.83080000e-08  3.00000000e-01  3.02952721e-01 
 8.94080000e-08  3.00000000e-01  3.02952721e-01 
 9.05080000e-08  3.00000000e-01  3.02952721e-01 
 9.16080000e-08  3.00000000e-01  3.02952721e-01 
 9.27080000e-08  3.00000000e-01  3.02952721e-01 
 9.38080000e-08  3.00000000e-01  3.02952721e-01 
 9.49080000e-08  3.00000000e-01  3.02952721e-01 
 9.60080000e-08  3.00000000e-01  3.02952721e-01 
 9.71080000e-08  3.00000000e-01  3.02952721e-01 
 9.82080000e-08  3.00000000e-01  3.02952721e-01 
 9.93080000e-08  3.00000000e-01  3.02952721e-01 
 1.00000000e-07  3.00000000e-01  3.02952721e-01 
 1.00001000e-07  3.01000000e-01  3.02970398e-01 
 1.00003000e-07  3.03000000e-01  3.03007059e-01 
 1.00007000e-07  3.07000000e-01  3.03080953e-01 
 1.00010000e-07  3.10000000e-01  3.03136605e-01 
 1.00010800e-07  3.10000000e-01  3.03137208e-01 
 1.00012400e-07  3.10000000e-01  3.03137223e-01 
 1.00015600e-07  3.10000000e-01  3.03137124e-01 
 1.00022000e-07  3.10000000e-01  3.03137051e-01 
 1.00034800e-07  3.10000000e-01  3.03136783e-01 
 1.00060400e-07  3.10000000e-01  3.03136367e-01 
 1.00111600e-07  3.10000000e-01  3.03135417e-01 
 1.00214000e-07  3.10000000e-01  3.03133638e-01 
 1.00418800e-07  3.10000000e-01  3.03129971e-01 
 1.00828400e-07  3.10000000e-01  3.03122799e-01 
 1.01647600e-07  3.10000000e-01  3.03108526e-01 
 1.02747600e-07  3.10000000e-01  3.03089907e-01 
 1.03847600e-07  3.10000000e-01  3.03071804e-01 
 1.04947600e-07  3.10000000e-01  3.03054453e-01 
 1.06047600e-07  3.10000000e-01  3.03037764e-01 
 1.07147600e-07  3.10000000e-01  3.03021954e-01 
 1.08247600e-07  3.10000000e-01  3.03006922e-01 
 1.09347600e-07  3.10000000e-01  3.02992873e-01 
 1.10447600e-07  3.10000000e-01  3.02979695e-01 
 1.11547600e-07  3.10000000e-01  3.02967584e-01 
 1.12647600e-07  3.10000000e-01  3.02956419e-01 
 1.13747600e-07  3.10000000e-01  3.02946389e-01 
 1.14847600e-07  3.10000000e-01  3.02937366e-01 
 1.15947600e-07  3.10000000e-01  3.02929532e-01 
 1.17047600e-07  3.10000000e-01  3.02922753e-01 
 1.18147600e-07  3.10000000e-01  3.02917206e-01 
 1.19247600e-07  3.10000000e-01  3.02912750e-01 
 1.20347600e-07  3.10000000e-01  3.02909557e-01 
 1.21447600e-07  3.10000000e-01  3.02907483e-01 
 1.22547600e-07  3.10000000e-01  3.02906695e-01 
 1.23647600e-07  3.10000000e-01  3.02907044e-01 
 1.24747600e-07  3.10000000e-01  3.02908692e-01 
 1.25847600e-07  3.10000000e-01  3.02911487e-01 
 1.26947600e-07  3.10000000e-01  3.02915588e-01 
 1.28047600e-07  3.10000000e-01  3.02920840e-01 
 1.29147600e-07  3.10000000e-01  3.02927397e-01 
 1.30247600e-07  3.10000000e-01  3.02935100e-01 
 1.31347600e-07  3.10000000e-01  3.02944104e-01 
 1.32447600e-07  3.10000000e-01  3.02954245e-01 
 1.33547600e-07  3.10000000e-01  3.02965674e-01 
 1.34647600e-07  3.10000000e-01  3.02978228e-01 
 1.35747600e-07  3.10000000e-01  3.02992053e-01 
 1.36847600e-07  3.10000000e-01  3.03006985e-01 
 1.37947600e-07  3.10000000e-01  3.03023169e-01 
 1.39047600e-07  3.10000000e-01  3.03040437e-01 
 1.40147600e-07  3.10000000e-01  3.03058933e-01 
 1.41247600e-07  3.10000000e-01  3.03078489e-01 
 1.42347600e-07  3.10000000e-01  3.03099247e-01 
 1.43447600e-07  3.10000000e-01  3.03121037e-01 
 1.44547600e-07  3.10000000e-01  3.03144001e-01 
 1.45647600e-07  3.10000000e-01  3.03167966e-01 
 1.46747600e-07  3.10000000e-01  3.03193073e-01 
 1.47847600e-07  3.10000000e-01  3.03219150e-01 
 1.48947600e-07  3.10000000e-01  3.03246337e-01 
 1.50047600e-07  3.10000000e-01  3.03274460e-01 
 1.51147600e-07  3.10000000e-01  3.03303659e-01 
 1.52247600e-07  3.10000000e-01  3.03333761e-01 
 1.53347600e-07  3.10000000e-01  3.03364902e-01 
 1.54447600e-07  3.10000000e-01  3.03396910e-01 
 1.55547600e-07  3.10000000e-01  3.03429922e-01 
 1.56647600e-07  3.10000000e-01  3.03463765e-01 
 1.57747600e-07  3.10000000e-01  3.03498575e-01 
 1.58847600e-07  3.10000000e-01  3.03534179e-01 
 1.59947600e-07  3.10000000e-01  3.03570714e-01 
 1.61047600e-07  3.10000000e-01  3.03608005e-01 
 1.62147600e-07  3.10000000e-01  3.03646190e-01 
 1.63247600e-07  3.10000000e-01  3.03685094e-01 
 1.64347600e-07  3.10000000e-01  3.03724854e-01 
 1.65447600e-07  3.10000000e-01  3.03765297e-01 
 1.66547600e-07  3.10000000e-01  3.03806558e-01 
 1.67647600e-07  3.10000000e-01  3.03848465e-01 
 1.68747600e-07  3.10000000e-01  3.03891154e-01 
 1.69847600e-07  3.10000000e-01  3.03934452e-01 
 1.70947600e-07  3.10000000e-01  3.03978495e-01 
 1.72047600e-07  3.10000000e-01  3.04023110e-01 
 1.73147600e-07  3.10000000e-01  3.04068434e-01 
 1.74247600e-07  3.10000000e-01  3.04114294e-01 
 1.75347600e-07  3.10000000e-01  3.04160828e-01 
 1.76447600e-07  3.10000000e-01  3.04207862e-01 
 1.77547600e-07  3.10000000e-01  3.04255534e-01 
 1.78647600e-07  3.10000000e-01  3.04303672e-01 
 1.79747600e-07  3.10000000e-01  3.04352413e-01 
 1.80847600e-07  3.10000000e-01  3.04401585e-01 
 1.81947600e-07  3.10000000e-01  3.04451328e-01 
 1.83047600e-07  3.10000000e-01  3.04501467e-01 
 1.84147600e-07  3.10000000e-01  3.04552143e-01 
 1.85247600e-07  3.10000000e-01  3.04603183e-01 
 1.86347600e-07  3.10000000e-01  3.04654727e-01 
 1.87447600e-07  3.10000000e-01  3.04706603e-01 
 1.88547600e-07  3.10000000e-01  3.04758951e-01 
 1.89647600e-07  3.10000000e-01  3.04811599e-01 
 1.90747600e-07  3.10000000e-01  3.04864688e-01 
 1.91847600e-07  3.10000000e-01  3.04918047e-01 
 1.92947600e-07  3.10000000e-01  3.04971816e-01 
 1.94047600e-07  3.10000000e-01  3.05025825e-01 
 1.95147600e-07  3.10000000e-01  3.05080215e-01 
 1.96247600e-07  3.10000000e-01  3.05134815e-01 
 1.97347600e-07  3.10000000e-01  3.05189768e-01 
 1.98447600e-07  3.10000000e-01  3.05244902e-01 
 1.99547600e-07  3.10000000e-01  3.05300361e-01 
 2.00647600e-07  3.10000000e-01  3.05355974e-01 
 2.01747600e-07  3.10000000e-01  3.05411884e-01 
 2.02847600e-07  3.10000000e-01  3.05467923e-01 
 2.03947600e-07  3.10000000e-01  3.05524231e-01 
 2.05047600e-07  3.10000000e-01  3.05580641e-01 
 2.06147600e-07  3.10000000e-01  3.05637297e-01 
 2.07247600e-07  3.10000000e-01  3.05694029e-01 
 2.08347600e-07  3.10000000e-01  3.05750981e-01 
 2.09447600e-07  3.10000000e-01  3.05807985e-01 
 2.10547600e-07  3.10000000e-01  3.05865186e-01 
 2.11647600e-07  3.10000000e-01  3.05922415e-01 
 2.12747600e-07  3.10000000e-01  3.05979817e-01 
 2.13847600e-07  3.10000000e-01  3.06037226e-01 
 2.14947600e-07  3.10000000e-01  3.06094784e-01 
 2.16047600e-07  3.10000000e-01  3.06152327e-01 
 2.17147600e-07  3.10000000e-01  3.06209998e-01 
 2.18247600e-07  3.10000000e-01  3.06267632e-01 
 2.19347600e-07  3.10000000e-01  3.06325374e-01 
 2.20447600e-07  3.10000000e-01  3.06383058e-01 
 2.21547600e-07  3.10000000e-01  3.06440830e-01 
 2.22647600e-07  3.10000000e-01  3.06498524e-01 
 2.23747600e-07  3.10000000e-01  3.06556286e-01 
 2.24847600e-07  3.10000000e-01  3.06613952e-01 
 2.25947600e-07  3.10000000e-01  3.06671667e-01 
 2.27047600e-07  3.10000000e-01  3.06729268e-01 
 2.28147600e-07  3.10000000e-01  3.06786899e-01 
 2.29247600e-07  3.10000000e-01  3.06844399e-01 
 2.30347600e-07  3.10000000e-01  3.06901912e-01 
 2.31447600e-07  3.10000000e-01  3.06959276e-01 
 2.32547600e-07  3.10000000e-01  3.07016638e-01 
 2.33647600e-07  3.10000000e-01  3.07073834e-01 
 2.34747600e-07  3.10000000e-01  3.07131012e-01 
 2.35847600e-07  3.10000000e-01  3.07188008e-01 
 2.36947600e-07  3.10000000e-01  3.07244971e-01 
 2.38047600e-07  3.10000000e-01  3.07301737e-01 
 2.39147600e-07  3.10000000e-01  3.07358455e-01 
 2.40247600e-07  3.10000000e-01  3.07414963e-01 
 2.41347600e-07  3.10000000e-01  3.07471409e-01 
 2.42447600e-07  3.10000000e-01  3.07527630e-01 
 2.43547600e-07  3.10000000e-01  3.07583776e-01 
 2.44647600e-07  3.10000000e-01  3.07639684e-01 
 2.45747600e-07  3.10000000e-01  3.07695505e-01 
 2.46847600e-07  3.10000000e-01  3.07751075e-01 
 2.47947600e-07  3.10000000e-01  3.07806545e-01 
 2.49047600e-07  3.10000000e-01  3.07861753e-01 
 2.50147600e-07  3.10000000e-01  3.07916850e-01 
 2.51247600e-07  3.10000000e-01  3.07971673e-01 
 2.52347600e-07  3.10000000e-01  3.08026373e-01 
 2.53447600e-07  3.10000000e-01  3.08080790e-01 
 2.54547600e-07  3.10000000e-01  3.08135072e-01 
 2.55647600e-07  3.10000000e-01  3.08189061e-01 
 2.56747600e-07  3.10000000e-01  3.08242907e-01 
 2.57847600e-07  3.10000000e-01  3.08296448e-01 
 2.58947600e-07  3.10000000e-01  3.08349837e-01 
 2.60047600e-07  3.10000000e-01  3.08402913e-01 
 2.61147600e-07  3.10000000e-01  3.08455827e-01 
 2.62247600e-07  3.10000000e-01  3.08508420e-01 
 2.63347600e-07  3.10000000e-01  3.08560842e-01 
 2.64447600e-07  3.10000000e-01  3.08612935e-01 
 2.65547600e-07  3.10000000e-01  3.08664849e-01 
 2.66647600e-07  3.10000000e-01  3.08716427e-01 
 2.67747600e-07  3.10000000e-01  3.08767818e-01 
 2.68847600e-07  3.10000000e-01  3.08818865e-01 
 2.69947600e-07  3.10000000e-01  3.08869719e-01 
 2.71047600e-07  3.10000000e-01  3.08920222e-01 
 2.72147600e-07  3.10000000e-01  3.08970525e-01 
 2.73247600e-07  3.10000000e-01  3.09020471e-01 
 2.74347600e-07  3.10000000e-01  3.09070211e-01 
 2.75447600e-07  3.10000000e-01  3.09119588e-01 
 2.76547600e-07  3.10000000e-01  3.09168753e-01 
 2.77647600e-07  3.10000000e-01  3.09217550e-01 
 2.78747600e-07  3.10000000e-01  3.09266129e-01 
 2.79847600e-07  3.10000000e-01  3.09314335e-01 
 2.80947600e-07  3.10000000e-01  3.09362319e-01 
 2.82047600e-07  3.10000000e-01  3.09409924e-01 
 2.83147600e-07  3.10000000e-01  3.09457304e-01 
 2.84247600e-07  3.10000000e-01  3.09504300e-01 
 2.85347600e-07  3.10000000e-01  3.09551066e-01 
 2.86447600e-07  3.10000000e-01  3.09597445e-01 
 2.87547600e-07  3.10000000e-01  3.09643589e-01 
 2.88647600e-07  3.10000000e-01  3.09689343e-01 
 2.89747600e-07  3.10000000e-01  3.09734860e-01 
 2.90847600e-07  3.10000000e-01  3.09779982e-01 
 2.91947600e-07  3.10000000e-01  3.09824864e-01 
 2.93047600e-07  3.10000000e-01  3.09869349e-01 
 2.94147600e-07  3.10000000e-01  3.09913591e-01 
 2.95247600e-07  3.10000000e-01  3.09957433e-01 
 2.96347600e-07  3.10000000e-01  3.10001029e-01 
 2.97447600e-07  3.10000000e-01  3.10044223e-01 
 2.98547600e-07  3.10000000e-01  3.10087170e-01 
 2.99647600e-07  3.10000000e-01  3.10129712e-01 
 3.00747600e-07  3.10000000e-01  3.10172005e-01 
 3.01847600e-07  3.10000000e-01  3.10213892e-01 
 3.02947600e-07  3.10000000e-01  3.10255527e-01 
 3.04047600e-07  3.10000000e-01  3.10296756e-01 
 3.05147600e-07  3.10000000e-01  3.10337732e-01 
 3.06247600e-07  3.10000000e-01  3.10378300e-01 
 3.07347600e-07  3.10000000e-01  3.10418613e-01 
 3.08447600e-07  3.10000000e-01  3.10458518e-01 
 3.09547600e-07  3.10000000e-01  3.10498169e-01 
 3.10647600e-07  3.10000000e-01  3.10537410e-01 
 3.11747600e-07  3.10000000e-01  3.10576395e-01 
 3.12847600e-07  3.10000000e-01  3.10614971e-01 
 3.13947600e-07  3.10000000e-01  3.10653291e-01 
 3.15047600e-07  3.10000000e-01  3.10691201e-01 
 3.16147600e-07  3.10000000e-01  3.10728855e-01 
 3.17247600e-07  3.10000000e-01  3.10766100e-01 
 3.18347600e-07  3.10000000e-01  3.10803089e-01 
 3.19447600e-07  3.10000000e-01  3.10839669e-01 
 3.20547600e-07  3.10000000e-01  3.10875993e-01 
 3.21647600e-07  3.10000000e-01  3.10911908e-01 
 3.22747600e-07  3.10000000e-01  3.10947569e-01 
 3.23847600e-07  3.10000000e-01  3.10982821e-01 
 3.24947600e-07  3.10000000e-01  3.11017820e-01 
 3.26047600e-07  3.10000000e-01  3.11052411e-01 
 3.27147600e-07  3.10000000e-01  3.11086749e-01 
 3.28247600e-07  3.10000000e-01  3.11120681e-01 
 3.29347600e-07  3.10000000e-01  3.11154361e-01 
 3.30447600e-07  3.10000000e-01  3.11187636e-01 
 3.31547600e-07  3.10000000e-01  3.11220661e-01 
 3.32647600e-07  3.10000000e-01  3.11253282e-01 
 3.33747600e-07  3.10000000e-01  3.11285654e-01 
 3.34847600e-07  3.10000000e-01  3.11317624e-01 
 3.35947600e-07  3.10000000e-01  3.11349347e-01 
 3.37047600e-07  3.10000000e-01  3.11380669e-01 
 3.38147600e-07  3.10000000e-01  3.11411746e-01 
 3.39247600e-07  3.10000000e-01  3.11442425e-01 
 3.40347600e-07  3.10000000e-01  3.11472860e-01 
 3.41447600e-07  3.10000000e-01  3.11502899e-01 
 3.42547600e-07  3.10000000e-01  3.11532696e-01 
 3.43647600e-07  3.10000000e-01  3.11562099e-01 
 3.44747600e-07  3.10000000e-01  3.11591263e-01 
 3.45847600e-07  3.10000000e-01  3.11620035e-01 
 3.46947600e-07  3.10000000e-01  3.11648570e-01 
 3.48047600e-07  3.10000000e-01  3.11676715e-01 
 3.49147600e-07  3.10000000e-01  3.11704627e-01 
 3.50247600e-07  3.10000000e-01  3.11732151e-01 
 3.51347600e-07  3.10000000e-01  3.11759443e-01 
 3.52447600e-07  3.10000000e-01  3.11786351e-01 
 3.53547600e-07  3.10000000e-01  3.11813030e-01 
 3.54647600e-07  3.10000000e-01  3.11839327e-01 
 3.55747600e-07  3.10000000e-01  3.11865398e-01 
 3.56847600e-07  3.10000000e-01  3.11891091e-01 
 3.57947600e-07  3.10000000e-01  3.11916559e-01 
 3.59047600e-07  3.10000000e-01  3.11941652e-01 
 3.60147600e-07  3.10000000e-01  3.11966525e-01 
 3.61247600e-07  3.10000000e-01  3.11991024e-01 
 3.62347600e-07  3.10000000e-01  3.12015307e-01 
 3.63447600e-07  3.10000000e-01  3.12039219e-01 
 3.64547600e-07  3.10000000e-01  3.12062917e-01 
 3.65647600e-07  3.10000000e-01  3.12086249e-01 
 3.66747600e-07  3.10000000e-01  3.12109370e-01 
 3.67847600e-07  3.10000000e-01  3.12132127e-01 
 3.68947600e-07  3.10000000e-01  3.12154677e-01 
 3.70047600e-07  3.10000000e-01  3.12176867e-01 
 3.71147600e-07  3.10000000e-01  3.12198852e-01 
 3.72247600e-07  3.10000000e-01  3.12220480e-01 
 3.73347600e-07  3.10000000e-01  3.12241908e-01 
 3.74447600e-07  3.10000000e-01  3.12262983e-01 
 3.75547600e-07  3.10000000e-01  3.12283859e-01 
 3.76647600e-07  3.10000000e-01  3.12304387e-01 
 3.77747600e-07  3.10000000e-01  3.12324720e-01 
 3.78847600e-07  3.10000000e-01  3.12344707e-01 
 3.79947600e-07  3.10000000e-01  3.12364504e-01 
 3.81047600e-07  3.10000000e-01  3.12383958e-01 
 3.82147600e-07  3.10000000e-01  3.12403225e-01 
 3.83247600e-07  3.10000000e-01  3.12422153e-01 
 3.84347600e-07  3.10000000e-01  3.12440898e-01 
 3.85447600e-07  3.10000000e-01  3.12459308e-01 
 3.86547600e-07  3.10000000e-01  3.12477538e-01 
 3.87647600e-07  3.10000000e-01  3.12495437e-01 
 3.88747600e-07  3.10000000e-01  3.12513160e-01 
 3.89847600e-07  3.10000000e-01  3.12530555e-01 
 3.90947600e-07  3.10000000e-01  3.12547778e-01 
 3.92047600e-07  3.10000000e-01  3.12564677e-01 
 3.93147600e-07  3.10000000e-01  3.12581407e-01 
 3.94247600e-07  3.10000000e-01  3.12597817e-01 
 3.95347600e-07  3.10000000e-01  3.12614063e-01 
 3.96447600e-07  3.10000000e-01  3.12629992e-01 
 3.97547600e-07  3.10000000e-01  3.12645760e-01 
 3.98647600e-07  3.10000000e-01  3.12661216e-01 
 3.99747600e-07  3.10000000e-01  3.12676514e-01 
 4.00847600e-07  3.10000000e-01  3.12691504e-01 
 4.01947600e-07  3.10000000e-01  3.12706341e-01 
 4.03047600e-07  3.10000000e-01  3.12720872e-01 
 4.04147600e-07  3.10000000e-01  3.12735254e-01 
 4.05247600e-07  3.10000000e-01  3.12749335e-01 
 4.06347600e-07  3.10000000e-01  3.12763271e-01 
 4.07447600e-07  3.10000000e-01  3.12776909e-01 
 4.08547600e-07  3.10000000e-01  3.12790405e-01 
 4.09647600e-07  3.10000000e-01  3.12803608e-01 
 4.10747600e-07  3.10000000e-01  3.12816673e-01 
 4.11847600e-07  3.10000000e-01  3.12829449e-01 
 4.12947600e-07  3.10000000e-01  3.12842090e-01 
 4.14047600e-07  3.10000000e-01  3.12854446e-01 
 4.15147600e-07  3.10000000e-01  3.12866671e-01 
