Title: simulation of the miller ota designed with the sekv model
Date: Thu May 22 16:29:52  2025
Plotname: Noise Spectral Density Curves
Flags: real
No. Variables: 17
No. Points: 329
Variables:
	0	frequency	frequency grid=3
	1	inoise_spectrum	voltage-density
	2	onoise_n.x1a.nsg13_lv_nmos	voltage-density
	3	onoise_n.x1a.nsg13_lv_nmos_flicker	voltage-density
	4	onoise_n.x1b.nsg13_lv_nmos	voltage-density
	5	onoise_n.x1b.nsg13_lv_nmos_flicker	voltage-density
	6	onoise_n.x2.nsg13_lv_pmos	voltage-density
	7	onoise_n.x2.nsg13_lv_pmos_flicker	voltage-density
	8	onoise_n.x4a.nsg13_lv_pmos	voltage-density
	9	onoise_n.x4a.nsg13_lv_pmos_flicker	voltage-density
	10	onoise_n.x4b.nsg13_lv_pmos	voltage-density
	11	onoise_n.x4b.nsg13_lv_pmos_flicker	voltage-density
	12	onoise_n.x5a.nsg13_lv_nmos	voltage-density
	13	onoise_n.x5a.nsg13_lv_nmos_flicker	voltage-density
	14	onoise_n.x5b.nsg13_lv_nmos	voltage-density
	15	onoise_n.x5b.nsg13_lv_nmos_flicker	voltage-density
	16	onoise_spectrum	voltage-density
Values:
 0	1.000000000000000e+00
	1.378129031709363e-05
	7.216925150880527e-03
	7.214976187141679e-03
	6.788320253136656e-03
	6.786218341343810e-03
	9.177574287477175e-04
	9.177535160066762e-04
	2.966441137068324e-02
	2.966416685899564e-02
	3.376965073178825e-02
	3.376937189541387e-02
	2.042933096078293e-04
	2.042901293119214e-04
	2.078865357110721e-04
	2.078833003499493e-04
	4.611055580612584e-02

 1	1.057767560283176e+00
	1.339970667525275e-05
	7.017196410348295e-03
	7.015191960139795e-03
	6.600468260573867e-03
	6.598306510393123e-03
	8.923447499506053e-04
	8.923407257839932e-04
	2.884301123665895e-02
	2.884275976188820e-02
	3.283457757361154e-02
	3.283429079667263e-02
	1.986365630056431e-04
	1.986332921435298e-04
	2.021302950060641e-04
	2.021269675106275e-04
	4.483379960380029e-02

 2	1.118872211587422e+00
	1.302868944442890e-05
	6.823000904081515e-03
	6.820939388771667e-03
	6.417820901192708e-03
	6.415597610394123e-03
	8.676357074782429e-04
	8.676315687132037e-04
	2.804435454377682e-02
	2.804409590765084e-02
	3.192539530721254e-02
	3.192510036360351e-02
	1.931364463392451e-04
	1.931330823321369e-04
	1.965334391325727e-04
	1.965300168793823e-04
	4.359239598208049e-02

 3	1.183506729519469e+00
	1.266794605697988e-05
	6.634185479359990e-03
	6.632065275504181e-03
	6.240234129693361e-03
	6.237947547744545e-03
	8.436108145136808e-04
	8.436065578870513e-04
	2.726781143043342e-02
	2.726754542903709e-02
	3.104138690485549e-02
	3.104108356203550e-02
	1.877886219347612e-04
	1.877851621304786e-04
	1.910915541232275e-04
	1.910880344141825e-04
	4.238536590642640e-02

 4	1.251875025862529e+00
	1.231719204675798e-05
	6.450601224301598e-03
	6.448420662380185e-03
	6.067567889769264e-03
	6.065216216476659e-03
	8.202511235216502e-04
	8.202467456773957e-04
	2.651276946608006e-02
	2.651249588969492e-02
	3.018185518213222e-02
	3.018154320094245e-02
	1.825888721628728e-04
	1.825853138337622e-04
	1.858003481666246e-04
	1.857967282268435e-04
	4.121175743728400e-02

 5	1.324192791886045e+00
	1.197615082479265e-05
	6.272103350291438e-03
	6.269860713413147e-03
	5.899686003527540e-03
	5.897267387640727e-03
	7.975382112890987e-04
	7.975337087756762e-04
	2.577863316769624e-02
	2.577835180063583e-02
	2.934612224752063e-02
	2.934580138199644e-02
	1.775330961089106e-04
	1.775294364497033e-04
	1.806556482188528e-04
	1.806519251944950e-04
	4.007064497850911e-02

 6	1.400688178817868e+00
	1.164455346118476e-05
	6.098551077649559e-03
	6.096244600219565e-03
	5.736456063955709e-03
	5.733968601733865e-03
	7.754541643775764e-04
	7.754495336452247e-04
	2.506482352957533e-02
	2.506453415001582e-02
	2.853352896709767e-02
	2.853319896427550e-02
	1.726173063346286e-04
	1.726135424602387e-04
	1.756533967083117e-04
	1.756495676643375e-04
	3.896112854648384e-02

 7	1.481602517625661e+00
	1.132213847304048e-05
	5.929807524446014e-03
	5.927435390797896e-03
	5.577749330348744e-03
	5.575191064088381e-03
	7.539815649758597e-04
	7.539768023738135e-04
	2.437077756604694e-02
	2.437047994585308e-02
	2.774343444397952e-02
	2.774309504369839e-02
	1.678376257290709e-04
	1.678337546723325e-04
	1.707896483311890e-04
	1.707857102490574e-04
	3.788233305934208e-02

 8	1.567191080378307e+00
	1.100865161827747e-05
	5.765739598374298e-03
	5.763299941365026e-03
	5.423440626612881e-03
	5.420809543136005e-03
	7.331034771415095e-04
	7.330985789151356e-04
	2.369594786677065e-02
	2.369564177131684e-02
	2.697521551207256e-02
	2.697486644677002e-02
	1.631902844460143e-04
	1.631863031553551e-04
	1.660605669350380e-04
	1.660565167103402e-04
	3.683340764573576e-02

 9	1.657723885589316e+00
	1.070384569514092e-05
	5.606217891596646e-03
	5.603708791163772e-03
	5.273408242364741e-03
	5.270702271466543e-03
	7.128034334203384e-04
	7.127983957081924e-04
	2.303980216424494e-02
	2.303948735223140e-02
	2.622826624373020e-02
	2.622790723823270e-02
	1.586716169255355e-04
	1.586675222625865e-04
	1.614624224879582e-04
	1.614582569279857e-04
	3.581352497258889e-02

 10	1.753486550082957e+00
	1.040748034727126e-05
	5.451116578476702e-03
	5.448536060156947e-03
	5.127533836746359e-03
	5.124750849601603e-03
	6.930654218330650e-04
	6.930602406638659e-04
	2.240182291318450e-02
	2.240149913644821e-02
	2.550199747092052e-02
	2.550162824222781e-02
	1.542780589973143e-04
	1.542738477344522e-04
	1.569915881309488e-04
	1.569873039521937e-04
	3.482188059129960e-02

 11	1.854781190070612e+00
	1.011932187416981e-05
	5.300313316117427e-03
	5.297659349525821e-03
	4.985702344878815e-03
	4.982840152406043e-03
	6.738738732186864e-04
	6.738685445082090e-04
	2.178150688142765e-02
	2.178117388474819e-02
	2.479583631951963e-02
	2.479545657658332e-02
	1.500061450633415e-04
	1.500018138811645e-04
	1.526445373110661e-04
	1.526401311366527e-04
	3.385769230186504e-02

 12	1.961927374280117e+00
	9.839143046912972e-06
	5.153689147624046e-03
	5.150959644892847e-03
	4.847801886879039e-03
	4.844858238061780e-03
	6.552136489243867e-04
	6.552081684722664e-04
	2.117836475204477e-02
	2.117802227294471e-02
	2.410922575635611e-02
	2.410883519985210e-02
	1.458525053577679e-04
	1.458480508425012e-04
	1.484178409930757e-04
	1.484133093501213e-04
	3.292019953441701e-02

 13	2.075263132145056e+00
	9.566722928969603e-06
	5.011128408013873e-03
	5.008321222190447e-03
	4.713723679366282e-03
	4.710696259530432e-03
	6.370700288320281e-04
	6.370643923184790e-04
	2.059192073632593e-02
	2.059156850486589e-02
	2.344162414864032e-02
	2.344122247073499e-02
	1.418138632816757e-04
	1.418092819225061e-04
	1.443081649473472e-04
	1.443035042642505e-04
	3.200866274766864e-02

 14	2.195146020234698e+00
	9.301846701980304e-06
	4.872518632696785e-03
	4.869631556099711e-03
	4.583361949386570e-03
	4.580248378433161e-03
	6.194286997115408e-04
	6.194229026939846e-04
	2.002171219733494e-02
	2.002134993590285e-02
	2.279250483542229e-02
	2.279209171953231e-02
	1.378870328106194e-04
	1.378823209969577e-04
	1.403122671117965e-04
	1.403074737154527e-04
	3.112236284378534e-02

 15	2.321954250288979e+00
	9.044305496361200e-06
	4.737750468451990e-03
	4.734781230984621e-03
	4.456613850685103e-03
	4.453411681277707e-03
	6.022757438917492e-04
	6.022697818013517e-04
	1.946728928372360e-02
	1.946691670681843e-02
	2.216135571072980e-02
	2.216093083127538e-02
	1.340689159728271e-04
	1.340640699914953e-04
	1.364269950257338e-04
	1.364220651386728e-04
	3.026060059920470e-02

 16	2.456087882417324e+00
	8.793896226598652e-06
	4.606717586828407e-03
	4.603663854249210e-03
	4.333379382258357e-03
	4.330086097964402e-03
	5.855976282394016e-04
	5.855914963775157e-04
	1.892821457350801e-02
	1.892783138751757e-02
	2.154767881804717e-02
	2.154724184019872e-02
	1.303565003960097e-04
	1.303515164283532e-04
	1.326492833335229e-04
	1.326442130709721e-04
	2.942269611094139e-02

 17	2.597970087225644e+00
	8.550421431105065e-06
	4.479316599897799e-03
	4.476175972046801e-03
	4.213561309119133e-03
	4.210174322504482e-03
	5.693811934373881e-04
	5.693748869719014e-04
	1.840406272751557e-02
	1.840366863048831e-02
	2.095098995580294e-02
	2.095054053522084e-02
	1.267468569207692e-04
	1.267417310396914e-04
	1.289761513560138e-04
	1.289709367228806e-04
	2.860798825792429e-02

 18	2.748048480853339e+00
	8.313689116509432e-06
	4.355446978291332e-03
	4.352216987272089e-03
	4.097065085209393e-03
	4.093581735885580e-03
	5.536136435533435e-04
	5.536071575149290e-04
	1.789442015221779e-02
	1.789401483362860e-02
	2.037081829354240e-02
	2.037035607610990e-02
	1.232371372786473e-04
	1.232318654455650e-04
	1.254047007277516e-04
	1.253993376155265e-04
	2.781583417692319e-02

 19	2.906796537132124e+00
	8.083512606259865e-06
	4.235010971451857e-03
	4.231689079768382e-03
	3.983798778397126e-03
	3.980216331020725e-03
	5.382825358900225e-04
	5.382758651682887e-04
	1.739888467167086e-02
	1.739846781218064e-02
	1.980670599846821e-02
	1.980623062001729e-02
	1.198245718328972e-04
	1.198191498946159e-04
	1.219321130980108e-04
	1.219265972815888e-04
	2.704560875263268e-02

 20	3.074715081321830e+00
	7.859710393418773e-06
	4.117913530035606e-03
	4.114497128683826e-03
	3.873672997494950e-03
	3.869988639718654e-03
	5.233757711090298e-04
	5.233689104485722e-04
	1.691706520829183e-02
	1.691663647950077e-02
	1.925820787203944e-02
	1.925771895806941e-02
	1.165064673801047e-04
	1.165008910656126e-04
	1.185556478937510e-04
	1.185499750281695e-04
	2.629670412149024e-02

 21	3.252333870135678e+00
	7.642105997534500e-06
	4.004062230398462e-03
	4.000548636911829e-03
	3.766600821239360e-03
	3.762811661614432e-03
	5.088815836196674e-04
	5.088745276160150e-04
	1.644858147220391e-02
	1.644814053639842e-02
	1.872489099632561e-02
	1.872438816171450e-02
	1.132802050108242e-04
	1.132744699280027e-04
	1.152726401426237e-04
	1.152668057597167e-04
	2.556852918881430e-02

 22	3.440213263039755e+00
	7.430527825476657e-06
	3.893367201103261e-03
	3.889753657552269e-03
	3.662497729170877e-03
	3.658600795000788e-03
	4.947885322248287e-04
	4.947812753202892e-04
	1.599306365889043e-02
	1.599261016878349e-02
	1.820633438981904e-02
	1.820581723852760e-02
	1.101432380274341e-04
	1.101373396596850e-04
	1.120804983542066e-04
	1.120744978591729e-04
	2.486050915885722e-02

 23	3.638945990099385e+00
	7.224809036125389e-06
	3.785741051385826e-03
	3.782024722331313e-03
	3.561281534356476e-03
	3.557273769501661e-03
	4.810854910160331e-04
	4.810780274954311e-04
	1.555015215490143e-02
	1.554968575336654e-02
	1.770212867241454e-02
	1.770159679718273e-02
	1.070930899174513e-04
	1.070870236202384e-04
	1.089767024576706e-04
	1.089705311255559e-04
	2.417208507737566e-02

 24	3.849159021949672e+00
	7.024787408807814e-06
	3.681098801518603e-03
	3.677276771918881e-03
	3.462872317896752e-03
	3.458750580530630e-03
	4.677616405098451e-04
	4.677539644961555e-04
	1.511949725136256e-02
	1.511901757116095e-02
	1.721187573927096e-02
	1.721132872130693e-02
	1.041273523805770e-04
	1.041211133778824e-04
	1.059588017941250e-04
	1.059524547662168e-04
	2.350271338632859e-02

 25	4.071515547789679e+00
	6.830305215377966e-06
	3.579357815011850e-03
	3.575427088083866e-03
	3.367192365161328e-03
	3.362953425477883e-03
	4.548064590180625e-04
	4.547985644679366e-04
	1.470075886503994e-02
	1.470026552854119e-02
	1.673518844327436e-02
	1.673462585193580e-02
	1.012436834077803e-04
	1.012372667884747e-04
	1.030244131619145e-04
	1.030178854420494e-04
	2.285186549032033e-02

 26	4.306717067640506e+00
	6.641209095839335e-06
	3.480437732593378e-03
	3.476395227628357e-03
	3.274166103696961e-03
	3.269806641570467e-03
	4.422097142441923e-04
	4.422015949433771e-04
	1.429360626671922e-02
	1.429309888561515e-02
	1.627169028582765e-02
	1.627111167829560e-02
	9.843980541075346e-05
	9.843320612487919e-05
	1.001712189131740e-04
	1.001645053639565e-04
	2.221902733441289e-02

 27	4.555505605468011e+00
	6.457349937411911e-06
	3.384260407908699e-03
	3.380102958042915e-03
	3.183720042753617e-03
	3.179236645351324e-03
	4.299614550988546e-04
	4.299531046575045e-04
	1.389771781666080e-02
	1.389719599167276e-02
	1.582101511569571e-02
	1.582042003664068e-02
	9.571350340009858e-05
	9.570671625506677e-05
	9.739696509997280e-05
	9.739006043890653e-05
	2.160369899293721e-02

 28	4.818666050152229e+00
	6.278582756948407e-06
	3.290749844884352e-03
	3.286474194826001e-03
	3.095782714374642e-03
	3.091171873723575e-03
	4.180520037268639e-04
	4.180434155747464e-04
	1.351278070689714e-02
	1.351224402747657e-02
	1.538280683563929e-02
	1.538219481687982e-02
	9.306262321063454e-05
	9.305564286733594e-05
	9.469945966840671e-05
	9.469235846393802e-05
	2.100539426893962e-02

 29	5.097028631688890e+00
	6.104766586606892e-06
	3.199832136697838e-03
	3.195434940411297e-03
	3.010284615997781e-03
	3.005542726507162e-03
	4.064719477388426e-04
	4.064631151204376e-04
	1.313849071014076e-02
	1.313793875416322e-02
	1.495671911657466e-02
	1.495608967672841e-02
	9.048506977223084e-05
	9.047789074106161e-05
	9.207657069901846e-05
	9.206926736649327e-05
	2.042364030390368e-02

 30	5.391471540435052e+00
	5.935764362689754e-06
	3.111435406298384e-03
	3.106913224647520e-03
	2.927158154514467e-03
	2.922281510455704e-03
	3.952121326403086e-04
	3.952030486098040e-04
	1.277455193507520e-02
	1.277398426852788e-02
	1.454241511899942e-02
	1.454176776312676e-02
	8.797880542459830e-05
	8.797142206140174e-05
	8.952622469194785e-05
	8.951871348948321e-05
	1.985797719739340e-02

 31	5.702923697662160e+00
	5.771442817561194e-06
	3.025489748423194e-03
	3.020839046775841e-03
	2.846337591735324e-03
	2.841322384681974e-03
	3.842636544512640e-04
	3.842543118674496e-04
	1.242067658780318e-02
	1.242009276446610e-02
	1.413956722142760e-02
	1.413890144066811e-02
	8.554184827448292e-05
	8.553425477640947e-05
	8.704640489523121e-05
	8.703867991950358e-05
	1.930795763626659e-02

 32	6.032367686157211e+00
	5.611672374558236e-06
	2.941927173054464e-03
	2.937144318850676e-03
	2.767758991210278e-03
	2.762601307440972e-03
	3.736178525093775e-04
	3.736082440304398e-04
	1.207658473922896e-02
	1.207598430034999e-02
	1.374785675558029e-02
	1.374717202678215e-02
	8.317227059372578e-05
	8.316446099501383e-05
	8.463514967468532e-05
	8.462720485663830e-05
	1.877314653311191e-02

 33	6.380842850117579e+00
	5.456327045812156e-06
	2.860681550262678e-03
	2.855762810549967e-03
	2.691360166351956e-03
	2.686055984219918e-03
	3.632663024499144e-04
	3.632564205281382e-04
	1.174200409815323e-02
	1.174138657211732e-02
	1.336697374807924e-02
	1.336626953342204e-02
	8.086819725666418e-05
	8.086016542434516e-05
	8.229055092382450e-05
	8.228238002429957e-05
	1.825312067356463e-02

 34	6.749448574119218e+00
	5.305284332899907e-06
	2.781688556382156e-03
	2.776630095321595e-03
	2.617080629811457e-03
	2.611625817084969e-03
	3.532008093556175e-04
	3.531906462319972e-04
	1.141666978986121e-02
	1.141603469185403e-02
	1.299661666839395e-02
	1.299589241500508e-02
	7.862780421535965e-05
	7.861954384489189e-05
	8.001075251227030e-05
	8.000234911756507e-05
	1.774746837216005e-02

 35	7.139347751502845e+00
	5.158425130247173e-06
	2.704885621464876e-03
	2.699683497812719e-03
	2.544861544055581e-03
	2.539251855234631e-03
	3.434134010697754e-04
	3.434029487685450e-04
	1.110032413998497e-02
	1.109967097165148e-02
	1.263649218279284e-02
	1.263574732235813e-02
	7.644931701114750e-05
	7.644082162198454e-05
	7.779394877112120e-05
	7.778530628848102e-05
	1.725578913638414e-02

 36	7.551770453120341e+00
	5.015633631206791e-06
	2.630211877958769e-03
	2.624862042529133e-03
	2.474645673094789e-03
	2.468876746710086e-03
	3.338963216657465e-04
	3.338855719888359e-04
	1.079271646342244e-02
	1.079204471252085e-02
	1.228631491405087e-02
	1.228554886242003e-02
	7.433100932100831e-05
	7.432227225210839e-05
	7.563838301375686e-05
	7.562949466680644e-05
	1.677769333858284e-02

 37	7.988017808015676e+00
	4.876797236738615e-06
	2.557608110556693e-03
	2.552106403671883e-03
	2.406377335311137e-03
	2.400444691212822e-03
	3.246420250662219e-04
	3.246309695876486e-04
	1.049360285809603e-02
	1.049291199814784e-02
	1.194580720666662e-02
	1.194501936345409e-02
	7.227120153726431e-05
	7.226221594254939e-05
	7.354234609055320e-05
	7.353320491467720e-05
	1.631280189539244e-02

 38	8.449466108283303e+00
	4.741806466618672e-06
	2.487016707162092e-03
	2.481358856098309e-03
	2.340002357335222e-03
	2.333901393979876e-03
	3.156431688055125e-04
	3.156317988657228e-04
	1.020274600333357e-02
	1.020203549327044e-02
	1.161469889734124e-02
	1.161388864552353e-02
	7.026825937910559e-05
	7.025901822288026e-05
	7.150417497598777e-05
	7.149477381367017e-05
	1.586074595435281e-02

 39	8.937571151054209e+00
	4.610554873107716e-06
	2.418381610917305e-03
	2.412563227354842e-03
	2.275468028921089e-03
	2.269194020667128e-03
	3.068926079281494e-04
	3.068809146283225e-04
	9.919914962654772e-03
	9.919184246463136e-03
	1.129272709047271e-02
	1.129189379598309e-02
	6.832059253445092e-05
	6.831108858679284e-05
	6.952225138661228e-05
	6.951258288274716e-05
	1.542116658736635e-02

 40	9.453872831307907e+00
	4.482938957011001e-06
	2.351648273240047e-03
	2.345664850728613e-03
	2.212723058767650e-03
	2.206271153190868e-03
	2.983833890170678e-04
	2.983713632134008e-04
	9.644884990745393e-03
	9.644133497109913e-03
	1.097963593841725e-02
	1.097877894973921e-02
	6.642665333064242e-05
	6.641687916277917e-05
	6.759500042836721e-05
	6.758505702555542e-05
	1.499371449066343e-02

 41	9.999999999999963e+00
	4.358858086063132e-06
	2.286763607813305e-03
	2.280610519264906e-03
	2.151717531234839e-03
	2.145082746477819e-03
	2.901087443446314e-04
	2.900963766426254e-04
	9.377437344401208e-03
	9.376664486348406e-03
	1.067517642626998e-02
	1.067429507403078e-02
	6.458493543247237e-05
	6.457488341216134e-05
	6.572088927170836e-05
	6.571066320555749e-05
	1.457804969093517e-02

 42	1.057767560283172e+01
	4.238214415573622e-06
	2.223675945473399e-03
	2.217348440697222e-03
	2.092402863902228e-03
	2.085580086073526e-03
	2.820620861397209e-04
	2.820493668884946e-04
	9.117359097222551e-03
	9.116564271766114e-03
	1.037910616091512e-02
	1.037819975748133e-02
	6.279397256603081e-05
	6.278363485296258e-05
	6.389842585300907e-05
	6.388790914745722e-05
	1.417384125729234e-02

 43	1.118872211587418e+01
	4.120912811270595e-06
	2.162334989940458e-03
	2.155828193236527e-03
	2.034731765917311e-03
	2.027715746558880e-03
	2.742370009640890e-04
	2.742239202507460e-04
	8.864442957839566e-03
	8.863625545629163e-03
	1.009118916409556e-02
	1.009025700317260e-02
	6.105233726685864e-05
	6.104170580810726e-05
	6.212615760069493e-05
	6.211534206338215e-05
	1.378076701870774e-02

 44	1.183506729519464e+01
	4.006860774281739e-06
	2.102691774334925e-03
	2.096000682165979e-03
	1.978658197080073e-03
	1.971443550724242e-03
	2.666272441911465e-04
	2.666137918352322e-04
	8.618487091447059e-03
	8.617646456422795e-03
	9.811195669250037e-03
	9.810237025488088e-03
	5.935863965088107e-05
	5.934770617642911e-05
	6.040267018455981e-05
	6.039154740227574e-05
	1.339851328659789e-02

 45	1.251875025862524e+01
	3.895968368193418e-06
	2.044698618423211e-03
	2.037818097187254e-03
	1.924137327609832e-03
	1.916718529450522e-03
	2.592267345803178e-04
	2.592129001284050e-04
	8.379294944427055e-03
	8.378430433482010e-03
	9.538901921865276e-03
	9.537916050474479e-03
	5.771152620659156e-05
	5.770028222496220e-05
	5.872658628670613e-05
	5.871514762094642e-05
