 time            v(inp)          v(out)         
 0.00000000e+00  4.00000000e-01  4.03961054e-01 
 1.10000000e-11  4.00000000e-01  4.03961054e-01 
 2.20000000e-11  4.00000000e-01  4.03961054e-01 
 4.40000000e-11  4.00000000e-01  4.03961054e-01 
 8.80000000e-11  4.00000000e-01  4.03961054e-01 
 1.76000000e-10  4.00000000e-01  4.03961054e-01 
 3.52000000e-10  4.00000000e-01  4.03961054e-01 
 7.04000000e-10  4.00000000e-01  4.03961054e-01 
 1.40800000e-09  4.00000000e-01  4.03961054e-01 
 2.50800000e-09  4.00000000e-01  4.03961054e-01 
 3.60800000e-09  4.00000000e-01  4.03961054e-01 
 4.70800000e-09  4.00000000e-01  4.03961054e-01 
 5.80800000e-09  4.00000000e-01  4.03961054e-01 
 6.90800000e-09  4.00000000e-01  4.03961054e-01 
 8.00800000e-09  4.00000000e-01  4.03961054e-01 
 9.10800000e-09  4.00000000e-01  4.03961054e-01 
 1.02080000e-08  4.00000000e-01  4.03961054e-01 
 1.13080000e-08  4.00000000e-01  4.03961054e-01 
 1.24080000e-08  4.00000000e-01  4.03961054e-01 
 1.35080000e-08  4.00000000e-01  4.03961054e-01 
 1.46080000e-08  4.00000000e-01  4.03961054e-01 
 1.57080000e-08  4.00000000e-01  4.03961054e-01 
 1.68080000e-08  4.00000000e-01  4.03961054e-01 
 1.79080000e-08  4.00000000e-01  4.03961054e-01 
 1.90080000e-08  4.00000000e-01  4.03961054e-01 
 2.01080000e-08  4.00000000e-01  4.03961054e-01 
 2.12080000e-08  4.00000000e-01  4.03961054e-01 
 2.23080000e-08  4.00000000e-01  4.03961054e-01 
 2.34080000e-08  4.00000000e-01  4.03961054e-01 
 2.45080000e-08  4.00000000e-01  4.03961054e-01 
 2.56080000e-08  4.00000000e-01  4.03961054e-01 
 2.67080000e-08  4.00000000e-01  4.03961054e-01 
 2.78080000e-08  4.00000000e-01  4.03961054e-01 
 2.89080000e-08  4.00000000e-01  4.03961054e-01 
 3.00080000e-08  4.00000000e-01  4.03961054e-01 
 3.11080000e-08  4.00000000e-01  4.03961054e-01 
 3.22080000e-08  4.00000000e-01  4.03961054e-01 
 3.33080000e-08  4.00000000e-01  4.03961054e-01 
 3.44080000e-08  4.00000000e-01  4.03961054e-01 
 3.55080000e-08  4.00000000e-01  4.03961054e-01 
 3.66080000e-08  4.00000000e-01  4.03961054e-01 
 3.77080000e-08  4.00000000e-01  4.03961054e-01 
 3.88080000e-08  4.00000000e-01  4.03961054e-01 
 3.99080000e-08  4.00000000e-01  4.03961054e-01 
 4.10080000e-08  4.00000000e-01  4.03961054e-01 
 4.21080000e-08  4.00000000e-01  4.03961054e-01 
 4.32080000e-08  4.00000000e-01  4.03961054e-01 
 4.43080000e-08  4.00000000e-01  4.03961054e-01 
 4.54080000e-08  4.00000000e-01  4.03961054e-01 
 4.65080000e-08  4.00000000e-01  4.03961054e-01 
 4.76080000e-08  4.00000000e-01  4.03961054e-01 
 4.87080000e-08  4.00000000e-01  4.03961054e-01 
 4.98080000e-08  4.00000000e-01  4.03961054e-01 
 5.09080000e-08  4.00000000e-01  4.03961054e-01 
 5.20080000e-08  4.00000000e-01  4.03961054e-01 
 5.31080000e-08  4.00000000e-01  4.03961054e-01 
 5.42080000e-08  4.00000000e-01  4.03961054e-01 
 5.53080000e-08  4.00000000e-01  4.03961054e-01 
 5.64080000e-08  4.00000000e-01  4.03961054e-01 
 5.75080000e-08  4.00000000e-01  4.03961054e-01 
 5.86080000e-08  4.00000000e-01  4.03961054e-01 
 5.97080000e-08  4.00000000e-01  4.03961054e-01 
 6.08080000e-08  4.00000000e-01  4.03961054e-01 
 6.19080000e-08  4.00000000e-01  4.03961054e-01 
 6.30080000e-08  4.00000000e-01  4.03961054e-01 
 6.41080000e-08  4.00000000e-01  4.03961054e-01 
 6.52080000e-08  4.00000000e-01  4.03961054e-01 
 6.63080000e-08  4.00000000e-01  4.03961054e-01 
 6.74080000e-08  4.00000000e-01  4.03961054e-01 
 6.85080000e-08  4.00000000e-01  4.03961054e-01 
 6.96080000e-08  4.00000000e-01  4.03961054e-01 
 7.07080000e-08  4.00000000e-01  4.03961054e-01 
 7.18080000e-08  4.00000000e-01  4.03961054e-01 
 7.29080000e-08  4.00000000e-01  4.03961054e-01 
 7.40080000e-08  4.00000000e-01  4.03961054e-01 
 7.51080000e-08  4.00000000e-01  4.03961054e-01 
 7.62080000e-08  4.00000000e-01  4.03961054e-01 
 7.73080000e-08  4.00000000e-01  4.03961054e-01 
 7.84080000e-08  4.00000000e-01  4.03961054e-01 
 7.95080000e-08  4.00000000e-01  4.03961054e-01 
 8.06080000e-08  4.00000000e-01  4.03961054e-01 
 8.17080000e-08  4.00000000e-01  4.03961054e-01 
 8.28080000e-08  4.00000000e-01  4.03961054e-01 
 8.39080000e-08  4.00000000e-01  4.03961054e-01 
 8.50080000e-08  4.00000000e-01  4.03961054e-01 
 8.61080000e-08  4.00000000e-01  4.03961054e-01 
 8.72080000e-08  4.00000000e-01  4.03961054e-01 
 8.83080000e-08  4.00000000e-01  4.03961054e-01 
 8.94080000e-08  4.00000000e-01  4.03961054e-01 
 9.05080000e-08  4.00000000e-01  4.03961054e-01 
 9.16080000e-08  4.00000000e-01  4.03961054e-01 
 9.27080000e-08  4.00000000e-01  4.03961054e-01 
 9.38080000e-08  4.00000000e-01  4.03961054e-01 
 9.49080000e-08  4.00000000e-01  4.03961054e-01 
 9.60080000e-08  4.00000000e-01  4.03961054e-01 
 9.71080000e-08  4.00000000e-01  4.03961054e-01 
 9.82080000e-08  4.00000000e-01  4.03961054e-01 
 9.93080000e-08  4.00000000e-01  4.03961054e-01 
 1.00000000e-07  4.00000000e-01  4.03961054e-01 
 1.00001000e-07  4.30000000e-01  4.04013873e-01 
 1.00003000e-07  4.90000000e-01  4.04111779e-01 
 1.00007000e-07  6.10000000e-01  4.04231736e-01 
 1.00010000e-07  7.00000000e-01  4.04300500e-01 
 1.00010800e-07  7.00000000e-01  4.04302096e-01 
 1.00012400e-07  7.00000000e-01  4.04302102e-01 
 1.00015600e-07  7.00000000e-01  4.04301551e-01 
 1.00022000e-07  7.00000000e-01  4.04300980e-01 
 1.00034800e-07  7.00000000e-01  4.04299355e-01 
 1.00060400e-07  7.00000000e-01  4.04296703e-01 
 1.00111600e-07  7.00000000e-01  4.04291358e-01 
 1.00214000e-07  7.00000000e-01  4.04283122e-01 
 1.00418800e-07  7.00000000e-01  4.04274110e-01 
 1.00828400e-07  7.00000000e-01  4.04283557e-01 
 1.01647600e-07  7.00000000e-01  4.04370118e-01 
 1.02747600e-07  7.00000000e-01  4.04554062e-01 
 1.03847600e-07  7.00000000e-01  4.04761368e-01 
 1.04947600e-07  7.00000000e-01  4.04973423e-01 
 1.06047600e-07  7.00000000e-01  4.05187541e-01 
 1.07147600e-07  7.00000000e-01  4.05406451e-01 
 1.08247600e-07  7.00000000e-01  4.05632339e-01 
 1.09347600e-07  7.00000000e-01  4.05868529e-01 
 1.10447600e-07  7.00000000e-01  4.06116685e-01 
 1.11547600e-07  7.00000000e-01  4.06379283e-01 
 1.12647600e-07  7.00000000e-01  4.06657024e-01 
 1.13747600e-07  7.00000000e-01  4.06951402e-01 
 1.14847600e-07  7.00000000e-01  4.07262166e-01 
 1.15947600e-07  7.00000000e-01  4.07589898e-01 
 1.17047600e-07  7.00000000e-01  4.07933810e-01 
 1.18147600e-07  7.00000000e-01  4.08294051e-01 
 1.19247600e-07  7.00000000e-01  4.08668922e-01 
 1.20347600e-07  7.00000000e-01  4.09057900e-01 
 1.21447600e-07  7.00000000e-01  4.09459133e-01 
 1.22547600e-07  7.00000000e-01  4.09872050e-01 
 1.23647600e-07  7.00000000e-01  4.10294833e-01 
 1.24747600e-07  7.00000000e-01  4.10727004e-01 
 1.25847600e-07  7.00000000e-01  4.11166877e-01 
 1.26947600e-07  7.00000000e-01  4.11614131e-01 
 1.28047600e-07  7.00000000e-01  4.12067253e-01 
 1.29147600e-07  7.00000000e-01  4.12526101e-01 
 1.30247600e-07  7.00000000e-01  4.12989333e-01 
 1.31347600e-07  7.00000000e-01  4.13456973e-01 
 1.32447600e-07  7.00000000e-01  4.13927837e-01 
 1.33547600e-07  7.00000000e-01  4.14402093e-01 
 1.34647600e-07  7.00000000e-01  4.14878686e-01 
 1.35747600e-07  7.00000000e-01  4.15357902e-01 
 1.36847600e-07  7.00000000e-01  4.15838792e-01 
 1.37947600e-07  7.00000000e-01  4.16321734e-01 
 1.39047600e-07  7.00000000e-01  4.16805860e-01 
 1.40147600e-07  7.00000000e-01  4.17291620e-01 
 1.41247600e-07  7.00000000e-01  4.17778208e-01 
 1.42347600e-07  7.00000000e-01  4.18266127e-01 
 1.43447600e-07  7.00000000e-01  4.18754617e-01 
 1.44547600e-07  7.00000000e-01  4.19244220e-01 
 1.45647600e-07  7.00000000e-01  4.19734212e-01 
 1.46747600e-07  7.00000000e-01  4.20225163e-01 
 1.47847600e-07  7.00000000e-01  4.20716373e-01 
 1.48947600e-07  7.00000000e-01  4.21208434e-01 
 1.50047600e-07  7.00000000e-01  4.21700665e-01 
 1.51147600e-07  7.00000000e-01  4.22193670e-01 
 1.52247600e-07  7.00000000e-01  4.22686783e-01 
 1.53347600e-07  7.00000000e-01  4.23180618e-01 
 1.54447600e-07  7.00000000e-01  4.23674519e-01 
 1.55547600e-07  7.00000000e-01  4.24169107e-01 
 1.56647600e-07  7.00000000e-01  4.24663731e-01 
 1.57747600e-07  7.00000000e-01  4.25159020e-01 
 1.58847600e-07  7.00000000e-01  4.25654327e-01 
 1.59947600e-07  7.00000000e-01  4.26150283e-01 
 1.61047600e-07  7.00000000e-01  4.26646245e-01 
 1.62147600e-07  7.00000000e-01  4.27142847e-01 
 1.63247600e-07  7.00000000e-01  4.27639448e-01 
 1.64347600e-07  7.00000000e-01  4.28136685e-01 
 1.65447600e-07  7.00000000e-01  4.28633916e-01 
 1.66547600e-07  7.00000000e-01  4.29131780e-01 
 1.67647600e-07  7.00000000e-01  4.29629638e-01 
 1.68747600e-07  7.00000000e-01  4.30128128e-01 
 1.69847600e-07  7.00000000e-01  4.30626613e-01 
 1.70947600e-07  7.00000000e-01  4.31125729e-01 
 1.72047600e-07  7.00000000e-01  4.31624842e-01 
 1.73147600e-07  7.00000000e-01  4.32124588e-01 
 1.74247600e-07  7.00000000e-01  4.32624332e-01 
 1.75347600e-07  7.00000000e-01  4.33124712e-01 
 1.76447600e-07  7.00000000e-01  4.33625092e-01 
 1.77547600e-07  7.00000000e-01  4.34126111e-01 
 1.78647600e-07  7.00000000e-01  4.34627132e-01 
 1.79747600e-07  7.00000000e-01  4.35128795e-01 
 1.80847600e-07  7.00000000e-01  4.35630464e-01 
 1.81947600e-07  7.00000000e-01  4.36132776e-01 
 1.83047600e-07  7.00000000e-01  4.36635098e-01 
 1.84147600e-07  7.00000000e-01  4.37138067e-01 
 1.85247600e-07  7.00000000e-01  4.37641048e-01 
 1.86347600e-07  7.00000000e-01  4.38144679e-01 
 1.87447600e-07  7.00000000e-01  4.38648325e-01 
 1.88547600e-07  7.00000000e-01  4.39152624e-01 
 1.89647600e-07  7.00000000e-01  4.39656942e-01 
 1.90747600e-07  7.00000000e-01  4.40161915e-01 
 1.91847600e-07  7.00000000e-01  4.40666910e-01 
 1.92947600e-07  7.00000000e-01  4.41172564e-01 
 1.94047600e-07  7.00000000e-01  4.41678243e-01 
 1.95147600e-07  7.00000000e-01  4.42184583e-01 
 1.96247600e-07  7.00000000e-01  4.42690952e-01 
 1.97347600e-07  7.00000000e-01  4.43197984e-01 
 1.98447600e-07  7.00000000e-01  4.43705048e-01 
 1.99547600e-07  7.00000000e-01  4.44212779e-01 
 2.00647600e-07  7.00000000e-01  4.44720544e-01 
 2.01747600e-07  7.00000000e-01  4.45228978e-01 
 2.02847600e-07  7.00000000e-01  4.45737449e-01 
 2.03947600e-07  7.00000000e-01  4.46246592e-01 
 2.05047600e-07  7.00000000e-01  4.46755776e-01 
 2.06147600e-07  7.00000000e-01  4.47265634e-01 
 2.07247600e-07  7.00000000e-01  4.47775534e-01 
 2.08347600e-07  7.00000000e-01  4.48286112e-01 
 2.09447600e-07  7.00000000e-01  4.48796735e-01 
 2.10547600e-07  7.00000000e-01  4.49308036e-01 
 2.11647600e-07  7.00000000e-01  4.49819386e-01 
 2.12747600e-07  7.00000000e-01  4.50331417e-01 
 2.13847600e-07  7.00000000e-01  4.50843499e-01 
 2.14947600e-07  7.00000000e-01  4.51356263e-01 
 2.16047600e-07  7.00000000e-01  4.51869081e-01 
 2.17147600e-07  7.00000000e-01  4.52382583e-01 
 2.18247600e-07  7.00000000e-01  4.52896141e-01 
 2.19347600e-07  7.00000000e-01  4.53410385e-01 
 2.20447600e-07  7.00000000e-01  4.53924686e-01 
 2.21547600e-07  7.00000000e-01  4.54439677e-01 
 2.22647600e-07  7.00000000e-01  4.54954726e-01 
 2.23747600e-07  7.00000000e-01  4.55470465e-01 
 2.24847600e-07  7.00000000e-01  4.55986265e-01 
 2.25947600e-07  7.00000000e-01  4.56502756e-01 
 2.27047600e-07  7.00000000e-01  4.57019311e-01 
 2.28147600e-07  7.00000000e-01  4.57536557e-01 
 2.29247600e-07  7.00000000e-01  4.58053868e-01 
 2.30347600e-07  7.00000000e-01  4.58571873e-01 
 2.31447600e-07  7.00000000e-01  4.59089942e-01 
 2.32547600e-07  7.00000000e-01  4.59608707e-01 
 2.33647600e-07  7.00000000e-01  4.60127538e-01 
 2.34747600e-07  7.00000000e-01  4.60647065e-01 
 2.35847600e-07  7.00000000e-01  4.61166659e-01 
 2.36947600e-07  7.00000000e-01  4.61686949e-01 
 2.38047600e-07  7.00000000e-01  4.62207307e-01 
 2.39147600e-07  7.00000000e-01  4.62728362e-01 
 2.40247600e-07  7.00000000e-01  4.63249485e-01 
 2.41347600e-07  7.00000000e-01  4.63771306e-01 
 2.42447600e-07  7.00000000e-01  4.64293195e-01 
 2.43547600e-07  7.00000000e-01  4.64815782e-01 
 2.44647600e-07  7.00000000e-01  4.65338437e-01 
 2.45747600e-07  7.00000000e-01  4.65861790e-01 
 2.46847600e-07  7.00000000e-01  4.66385212e-01 
 2.47947600e-07  7.00000000e-01  4.66909330e-01 
 2.49047600e-07  7.00000000e-01  4.67433517e-01 
 2.50147600e-07  7.00000000e-01  4.67958400e-01 
 2.51247600e-07  7.00000000e-01  4.68483352e-01 
 2.52347600e-07  7.00000000e-01  4.69008998e-01 
 2.53447600e-07  7.00000000e-01  4.69534713e-01 
 2.54547600e-07  7.00000000e-01  4.70061122e-01 
 2.55647600e-07  7.00000000e-01  4.70587598e-01 
 2.56747600e-07  7.00000000e-01  4.71114766e-01 
 2.57847600e-07  7.00000000e-01  4.71642001e-01 
 2.58947600e-07  7.00000000e-01  4.72169927e-01 
 2.60047600e-07  7.00000000e-01  4.72697918e-01 
 2.61147600e-07  7.00000000e-01  4.73226598e-01 
 2.62247600e-07  7.00000000e-01  4.73755343e-01 
 2.63347600e-07  7.00000000e-01  4.74284774e-01 
 2.64447600e-07  7.00000000e-01  4.74814267e-01 
 2.65547600e-07  7.00000000e-01  4.75344446e-01 
 2.66647600e-07  7.00000000e-01  4.75874684e-01 
 2.67747600e-07  7.00000000e-01  4.76405605e-01 
 2.68847600e-07  7.00000000e-01  4.76936584e-01 
 2.69947600e-07  7.00000000e-01  4.77468243e-01 
 2.71047600e-07  7.00000000e-01  4.77999958e-01 
 2.72147600e-07  7.00000000e-01  4.78532349e-01 
 2.73247600e-07  7.00000000e-01  4.79064794e-01 
 2.74347600e-07  7.00000000e-01  4.79597912e-01 
 2.75447600e-07  7.00000000e-01  4.80131081e-01 
 2.76547600e-07  7.00000000e-01  4.80664919e-01 
 2.77647600e-07  7.00000000e-01  4.81198805e-01 
 2.78747600e-07  7.00000000e-01  4.81733358e-01 
 2.79847600e-07  7.00000000e-01  4.82267954e-01 
 2.80947600e-07  7.00000000e-01  4.82803214e-01 
 2.82047600e-07  7.00000000e-01  4.83338513e-01 
 2.83147600e-07  7.00000000e-01  4.83874471e-01 
 2.84247600e-07  7.00000000e-01  4.84410466e-01 
 2.85347600e-07  7.00000000e-01  4.84947115e-01 
 2.86447600e-07  7.00000000e-01  4.85483797e-01 
 2.87547600e-07  7.00000000e-01  4.86021128e-01 
 2.88647600e-07  7.00000000e-01  4.86558488e-01 
 2.89747600e-07  7.00000000e-01  4.87096493e-01 
 2.90847600e-07  7.00000000e-01  4.87634521e-01 
 2.91947600e-07  7.00000000e-01  4.88173190e-01 
 2.93047600e-07  7.00000000e-01  4.88711878e-01 
 2.94147600e-07  7.00000000e-01  4.89251201e-01 
 2.95247600e-07  7.00000000e-01  4.89790538e-01 
 2.96347600e-07  7.00000000e-01  4.90330505e-01 
 2.97447600e-07  7.00000000e-01  4.90870481e-01 
 2.98547600e-07  7.00000000e-01  4.91411081e-01 
 2.99647600e-07  7.00000000e-01  4.91951685e-01 
 3.00747600e-07  7.00000000e-01  4.92492907e-01 
 3.01847600e-07  7.00000000e-01  4.93034127e-01 
 3.02947600e-07  7.00000000e-01  4.93575961e-01 
 3.04047600e-07  7.00000000e-01  4.94117786e-01 
 3.05147600e-07  7.00000000e-01  4.94660218e-01 
 3.06247600e-07  7.00000000e-01  4.95202636e-01 
 3.07347600e-07  7.00000000e-01  4.95745655e-01 
 3.08447600e-07  7.00000000e-01  4.96288653e-01 
 3.09547600e-07  7.00000000e-01  4.96832246e-01 
 3.10647600e-07  7.00000000e-01  4.97375813e-01 
 3.11747600e-07  7.00000000e-01  4.97919967e-01 
 3.12847600e-07  7.00000000e-01  4.98464089e-01 
 3.13947600e-07  7.00000000e-01  4.99008791e-01 
 3.15047600e-07  7.00000000e-01  4.99553454e-01 
 3.16147600e-07  7.00000000e-01  5.00098691e-01 
 3.17247600e-07  7.00000000e-01  5.00643882e-01 
 3.18347600e-07  7.00000000e-01  5.01189640e-01 
 3.19447600e-07  7.00000000e-01  5.01735345e-01 
 3.20547600e-07  7.00000000e-01  5.02281610e-01 
 3.21647600e-07  7.00000000e-01  5.02827815e-01 
 3.22747600e-07  7.00000000e-01  5.03374572e-01 
 3.23847600e-07  7.00000000e-01  5.03921263e-01 
 3.24947600e-07  7.00000000e-01  5.04468498e-01 
 3.26047600e-07  7.00000000e-01  5.05015660e-01 
 3.27147600e-07  7.00000000e-01  5.05563358e-01 
 3.28247600e-07  7.00000000e-01  5.06110975e-01 
 3.29347600e-07  7.00000000e-01  5.06659122e-01 
 3.30447600e-07  7.00000000e-01  5.07207180e-01 
 3.31547600e-07  7.00000000e-01  5.07755760e-01 
 3.32647600e-07  7.00000000e-01  5.08304243e-01 
 3.33747600e-07  7.00000000e-01  5.08853241e-01 
 3.34847600e-07  7.00000000e-01  5.09402134e-01 
 3.35947600e-07  7.00000000e-01  5.09951534e-01 
 3.37047600e-07  7.00000000e-01  5.10500822e-01 
 3.38147600e-07  7.00000000e-01  5.11050608e-01 
 3.39247600e-07  7.00000000e-01  5.11600274e-01 
 3.40347600e-07  7.00000000e-01  5.12150430e-01 
 3.41447600e-07  7.00000000e-01  5.12700459e-01 
 3.42547600e-07  7.00000000e-01  5.13250970e-01 
 3.43647600e-07  7.00000000e-01  5.13801345e-01 
 3.44747600e-07  7.00000000e-01  5.14352194e-01 
 3.45847600e-07  7.00000000e-01  5.14902900e-01 
 3.46947600e-07  7.00000000e-01  5.15454071e-01 
 3.48047600e-07  7.00000000e-01  5.16005090e-01 
 3.49147600e-07  7.00000000e-01  5.16556567e-01 
 3.50247600e-07  7.00000000e-01  5.17107884e-01 
 3.51347600e-07  7.00000000e-01  5.17659649e-01 
 3.52447600e-07  7.00000000e-01  5.18211247e-01 
 3.53547600e-07  7.00000000e-01  5.18763285e-01 
 3.54647600e-07  7.00000000e-01  5.19315147e-01 
 3.55747600e-07  7.00000000e-01  5.19867441e-01 
 3.56847600e-07  7.00000000e-01  5.20419550e-01 
 3.57947600e-07  7.00000000e-01  5.20972083e-01 
 3.59047600e-07  7.00000000e-01  5.21524423e-01 
 3.60147600e-07  7.00000000e-01  5.22077178e-01 
 3.61247600e-07  7.00000000e-01  5.22629732e-01 
 3.62347600e-07  7.00000000e-01  5.23182692e-01 
 3.63447600e-07  7.00000000e-01  5.23735442e-01 
 3.64547600e-07  7.00000000e-01  5.24288591e-01 
 3.65647600e-07  7.00000000e-01  5.24841521e-01 
 3.66747600e-07  7.00000000e-01  5.25394841e-01 
 3.67847600e-07  7.00000000e-01  5.25947934e-01 
 3.68947600e-07  7.00000000e-01  5.26501408e-01 
 3.70047600e-07  7.00000000e-01  5.27054646e-01 
 3.71147600e-07  7.00000000e-01  5.27608256e-01 
 3.72247600e-07  7.00000000e-01  5.28161623e-01 
 3.73347600e-07  7.00000000e-01  5.28715353e-01 
 3.74447600e-07  7.00000000e-01  5.29268830e-01 
 3.75547600e-07  7.00000000e-01  5.29822662e-01 
 3.76647600e-07  7.00000000e-01  5.30376233e-01 
 3.77747600e-07  7.00000000e-01  5.30930150e-01 
 3.78847600e-07  7.00000000e-01  5.31483797e-01 
 3.79947600e-07  7.00000000e-01  5.32037782e-01 
 3.81047600e-07  7.00000000e-01  5.32591487e-01 
 3.82147600e-07  7.00000000e-01  5.33145521e-01 
 3.83247600e-07  7.00000000e-01  5.33699268e-01 
 3.84347600e-07  7.00000000e-01  5.34253334e-01 
 3.85447600e-07  7.00000000e-01  5.34807104e-01 
 3.86547600e-07  7.00000000e-01  5.35361185e-01 
 3.87647600e-07  7.00000000e-01  5.35914959e-01 
 3.88747600e-07  7.00000000e-01  5.36469037e-01 
 3.89847600e-07  7.00000000e-01  5.37022800e-01 
 3.90947600e-07  7.00000000e-01  5.37576856e-01 
 3.92047600e-07  7.00000000e-01  5.38130588e-01 
 3.93147600e-07  7.00000000e-01  5.38684605e-01 
 3.94247600e-07  7.00000000e-01  5.39238289e-01 
 3.95347600e-07  7.00000000e-01  5.39792249e-01 
 3.96447600e-07  7.00000000e-01  5.40345866e-01 
 3.97547600e-07  7.00000000e-01  5.40899750e-01 
 3.98647600e-07  7.00000000e-01  5.41453282e-01 
 3.99747600e-07  7.00000000e-01  5.42007072e-01 
 4.00847600e-07  7.00000000e-01  5.42560501e-01 
 4.01947600e-07  7.00000000e-01  5.43114178e-01 
 4.03047600e-07  7.00000000e-01  5.43667485e-01 
 4.04147600e-07  7.00000000e-01  5.44221031e-01 
 4.05247600e-07  7.00000000e-01  5.44774197e-01 
 4.06347600e-07  7.00000000e-01  5.45327593e-01 
 4.07447600e-07  7.00000000e-01  5.45880599e-01 
 4.08547600e-07  7.00000000e-01  5.46433826e-01 
 4.09647600e-07  7.00000000e-01  5.46986653e-01 
 4.10747600e-07  7.00000000e-01  5.47539692e-01 
 4.11847600e-07  7.00000000e-01  5.48092320e-01 
 4.12947600e-07  7.00000000e-01  5.48645151e-01 
 4.14047600e-07  7.00000000e-01  5.49197562e-01 
 4.15147600e-07  7.00000000e-01  5.49750166e-01 
